Chronologic VCS simulator copyright 1991-2020
Contains Synopsys proprietary information.
Compiler version R-2020.12-SP2_Full64; Runtime version R-2020.12-SP2_Full64;  Jul  4 11:26 2022
---------------------------------------------------------------
[SLV_DRV] 		Virtual Interface has been linked.
---------------------------------------------------------------
[GEN] ==================== Randomizing ========================
+=========================================================================================+
| Transaction Type :      WRITE              @    0                                       |
+=========================================================================================+
| Sr No  |            Name |                           Type | Size |                Value |
+=========================================================================================+
|     1. |            addr |                      bit[31:0] |   32 |            255300005 |
|     2. |           burst |       enum $unit::burst_type_e |    2 |                FIXED |
|     3. |             len |                       bit[7:0] |    8 |                    9 |
|     4. |            size |                       bit[2:0] |    3 |                    1 |
|     5. |         data[0] |                      bit[63:0] |   64 |  6364222274775833059 |
|        |         data[1] |                      bit[63:0] |   64 |   739128890519931820 |
|        |         data[2] |                      bit[63:0] |   64 |  7958731346000627138 |
|        |         data[3] |                      bit[63:0] |   64 |  4741153175598506841 |
|        |         data[4] |                      bit[63:0] |   64 | 16694273379036450577 |
|        |         data[5] |                      bit[63:0] |   64 | 10490000021342090147 |
|        |         data[6] |                      bit[63:0] |   64 | 11497752266842205664 |
|        |         data[7] |                      bit[63:0] |   64 | 17776954889951786145 |
|        |         data[8] |                      bit[63:0] |   64 |  4243697586391453132 |
|        |         data[9] |                      bit[63:0] |   64 | 15179835873471915892 |
|     6. |        wstrb[0] |                       bit[7:0] |    8 |                   32 |
|        |        wstrb[1] |                       bit[7:0] |    8 |                   32 |
|        |        wstrb[2] |                       bit[7:0] |    8 |                   32 |
|        |        wstrb[3] |                       bit[7:0] |    8 |                   32 |
|        |        wstrb[4] |                       bit[7:0] |    8 |                   32 |
|        |        wstrb[5] |                       bit[7:0] |    8 |                   32 |
|        |        wstrb[6] |                       bit[7:0] |    8 |                   32 |
|        |        wstrb[7] |                       bit[7:0] |    8 |                   32 |
|        |        wstrb[8] |                       bit[7:0] |    8 |                   32 |
|        |        wstrb[9] |                       bit[7:0] |    8 |                   32 |
|     7. |           bresp |         enum $unit::response_e |    2 |                 OKAY |
+=========================================================================================+
------------------------------------------------------------
[Write Address Channel] 		@0 --> AWREADY Asserted
----------------------------------------------------------:---
[Write Address Channel] 		@15 --> AWVALID & AWREADY Handshaked 
[Write Address Channel] 		@15 --> write data queue = '{{ ref to class ei_axi4_transaction_c#(64,32)}} 
------------------------------------------------------------
------------------------------------------------------------
[Write Address Channel] 		@15 --> AWREADY Asserted
@15 write handshake occured -> 255300005
@15 write handshake occured -> 255300005
##########################################################
[SLV DRV] 		@35 --> write address = f3791a5
[SLV DRV] 		@35 --> write size = 2
[SLV DRV] 		@35 --> write len  = 200
[SLV DRV] 		 @35 --> mem[1e6f234] = 420000000000
##########################################################
[SLV DRV] 		@45 --> write address = f3791a5
[SLV DRV] 		@45 --> write size = 2
[SLV DRV] 		@45 --> write len  = 200
[SLV DRV] 		 @45 --> mem[1e6f234] = e90000000000
##########################################################
[SLV DRV] 		@55 --> write address = f3791a5
[SLV DRV] 		@55 --> write size = 2
[SLV DRV] 		@55 --> write len  = 200
[SLV DRV] 		 @55 --> mem[1e6f234] = 170000000000
##########################################################
[SLV DRV] 		@65 --> write address = f3791a5
[SLV DRV] 		@65 --> write size = 2
[SLV DRV] 		@65 --> write len  = 200
[SLV DRV] 		 @65 --> mem[1e6f234] = f50000000000
##########################################################
[SLV DRV] 		@75 --> write address = f3791a5
[SLV DRV] 		@75 --> write size = 2
[SLV DRV] 		@75 --> write len  = 200
[SLV DRV] 		 @75 --> mem[1e6f234] = f90000000000
##########################################################
[SLV DRV] 		@85 --> write address = f3791a5
[SLV DRV] 		@85 --> write size = 2
[SLV DRV] 		@85 --> write len  = 200
[SLV DRV] 		 @85 --> mem[1e6f234] = f70000000000
##########################################################
[SLV DRV] 		@95 --> write address = f3791a5
[SLV DRV] 		@95 --> write size = 2
[SLV DRV] 		@95 --> write len  = 200
[SLV DRV] 		 @95 --> mem[1e6f234] = 380000000000
##########################################################
[SLV DRV] 		@105 --> write address = f3791a5
[SLV DRV] 		@105 --> write size = 2
[SLV DRV] 		@105 --> write len  = 200
[SLV DRV] 		 @105 --> mem[1e6f234] = 6e0000000000
[MST DRV] --> .... @115 WLAST Asserted
##########################################################
[SLV DRV] 		@115 --> write address = f3791a5
[SLV DRV] 		@115 --> write size = 2
[SLV DRV] 		@115 --> write len  = 200
[SLV DRV] 		 @115 --> mem[1e6f234] = a40000000000
[MST DRV] --> .... @125 WLAST Deasserted
##########################################################
[SLV DRV] 		@125 --> write address = f3791a5
[SLV DRV] 		@125 --> write size = 2
[SLV DRV] 		@125 --> write len  = 200
[SLV DRV] 		 @125 --> mem[1e6f234] = 9c0000000000
'{transaction_type:WRITE, addr:'hf3791a5, burst:FIXED, len:'h9, size:'h1, data:'{'h5852427097a459e3, 'ha41e9cf52ab4bac, 'h6e7317fdf52245c2, 'h41cbf5b18943a359, 'he7adf9302cba4f11, 'h9193f770e5ef73a3, 'h9f9038c4dc926de0, 'hf6b46e493bb834a1, 'h3ae4a478830b8dcc, 'hd2a99c4cfb066774} , rresp:'{}, wstrb:'{'h20, 'h20, 'h20, 'h20, 'h20, 'h20, 'h20, 'h20, 'h20, 'h20} , bresp:OKAY, errors:NO_ERROR}
+=========================================================================================+
| Transaction Type :      WRITE [MONITOR FOR WRITE] @  155                                       |
+=========================================================================================+
| Sr No  |            Name |                           Type | Size |                Value |
+=========================================================================================+
|     1. |            addr |                      bit[31:0] |   32 |            255300005 |
|     2. |           burst |       enum $unit::burst_type_e |    2 |                FIXED |
|     3. |             len |                       bit[7:0] |    8 |                    9 |
|     4. |            size |                       bit[2:0] |    3 |                    1 |
|     5. |         data[0] |                      bit[63:0] |   64 |  6364222274775833059 |
|        |         data[1] |                      bit[63:0] |   64 |   739128890519931820 |
|        |         data[2] |                      bit[63:0] |   64 |  7958731346000627138 |
|        |         data[3] |                      bit[63:0] |   64 |  4741153175598506841 |
|        |         data[4] |                      bit[63:0] |   64 | 16694273379036450577 |
|        |         data[5] |                      bit[63:0] |   64 | 10490000021342090147 |
|        |         data[6] |                      bit[63:0] |   64 | 11497752266842205664 |
|        |         data[7] |                      bit[63:0] |   64 | 17776954889951786145 |
|        |         data[8] |                      bit[63:0] |   64 |  4243697586391453132 |
|        |         data[9] |                      bit[63:0] |   64 | 15179835873471915892 |
|     6. |        wstrb[0] |                       bit[7:0] |    8 |                   32 |
|        |        wstrb[1] |                       bit[7:0] |    8 |                   32 |
|        |        wstrb[2] |                       bit[7:0] |    8 |                   32 |
|        |        wstrb[3] |                       bit[7:0] |    8 |                   32 |
|        |        wstrb[4] |                       bit[7:0] |    8 |                   32 |
|        |        wstrb[5] |                       bit[7:0] |    8 |                   32 |
|        |        wstrb[6] |                       bit[7:0] |    8 |                   32 |
|        |        wstrb[7] |                       bit[7:0] |    8 |                   32 |
|        |        wstrb[8] |                       bit[7:0] |    8 |                   32 |
|        |        wstrb[9] |                       bit[7:0] |    8 |                   32 |
|     7. |           bresp |         enum $unit::response_e |    2 |                 OKAY |
+=========================================================================================+
no_of_trans_monitored = 1
[GEN] ==================== Randomizing ========================
+=========================================================================================+
| Transaction Type :       READ              @  155                                       |
+=========================================================================================+
| Sr No  |            Name |                           Type | Size |                Value |
+=========================================================================================+
|     1. |            addr |                      bit[31:0] |   32 |            255300005 |
|     2. |           burst |       enum $unit::burst_type_e |    2 |                FIXED |
|     3. |             len |                       bit[7:0] |    8 |                    9 |
|     4. |            size |                       bit[2:0] |    3 |                    1 |
|     5. |         data[0] |                      bit[63:0] |   64 |                    0 |
+=========================================================================================+
|     6. |        rresp[0] |         enum $unit::response_e |    2 |                 OKAY |
+=========================================================================================+
[GEN] ==================== Randomizing ========================
+=========================================================================================+
| Transaction Type :      WRITE              @  155                                       |
+=========================================================================================+
| Sr No  |            Name |                           Type | Size |                Value |
+=========================================================================================+
|     1. |            addr |                      bit[31:0] |   32 |           3121861719 |
|     2. |           burst |       enum $unit::burst_type_e |    2 |                 INCR |
|     3. |             len |                       bit[7:0] |    8 |                    6 |
|     4. |            size |                       bit[2:0] |    3 |                    3 |
|     5. |         data[0] |                      bit[63:0] |   64 |   481887697206416340 |
|        |         data[1] |                      bit[63:0] |   64 |  1290794089595950203 |
|        |         data[2] |                      bit[63:0] |   64 |  1526834211586137375 |
|        |         data[3] |                      bit[63:0] |   64 | 17679505230743120024 |
|        |         data[4] |                      bit[63:0] |   64 | 12376015322682374612 |
|        |         data[5] |                      bit[63:0] |   64 | 14413811525773559478 |
|        |         data[6] |                      bit[63:0] |   64 | 15485746955070738819 |
|     6. |        wstrb[0] |                       bit[7:0] |    8 |                  128 |
|        |        wstrb[1] |                       bit[7:0] |    8 |                  255 |
|        |        wstrb[2] |                       bit[7:0] |    8 |                  255 |
|        |        wstrb[3] |                       bit[7:0] |    8 |                  255 |
|        |        wstrb[4] |                       bit[7:0] |    8 |                  255 |
|        |        wstrb[5] |                       bit[7:0] |    8 |                  255 |
|        |        wstrb[6] |                       bit[7:0] |    8 |                  255 |
|     7. |           bresp |         enum $unit::response_e |    2 |                 OKAY |
+=========================================================================================+
[Write Address Channel] 		@175 --> AWVALID & AWREADY Handshaked 
[Write Address Channel] 		@175 --> write data queue = '{{ ref to class ei_axi4_transaction_c#(64,32)}} 
------------------------------------------------------------
------------------------------------------------------------
[Write Address Channel] 		@175 --> AWREADY Asserted
[Write Address Channel] 		@175 ARVALID & ARREADY Handshaked 
----------------------------------------------------------:---
@175 write handshake occured -> 3121861719
@175 read handshake occured -> 255300005
@175 write handshake occured -> 3121861719
@175 read handshake occured -> 255300005
++++++++++++++++++++++++ [ beat = 0 ] ++++++++++++++++++++++++++++++++++++++++
[SLV DRV] 			 @175 --> read burst = 0
[SLV DRV] 			 @175 --> read size = 2
[SLV DRV] 			 @175 --> read addr = f3791a5
[SLV DRV] 			 @175 --> read data= 9c0000000000
+++++++++++++++++++++++++++++++++++++++++++++++++++++++++++++++++++++
time                 175
++++++++++++++++++++++++ [ beat = 1 ] ++++++++++++++++++++++++++++++++++++++++
[SLV DRV] 			 @185 --> read burst = 0
[SLV DRV] 			 @185 --> read size = 2
[SLV DRV] 			 @185 --> read addr = f3791a5
[SLV DRV] 			 @185 --> read data= 9c0000000000
+++++++++++++++++++++++++++++++++++++++++++++++++++++++++++++++++++++
time                 185
##########################################################
[SLV DRV] 		@195 --> write address = ba13d457
[SLV DRV] 		@195 --> write size = 8
[SLV DRV] 		@195 --> write len  = 40
[SLV DRV] 		 @195 --> mem[17427a8a] = 600000000000000
++++++++++++++++++++++++ [ beat = 2 ] ++++++++++++++++++++++++++++++++++++++++
[SLV DRV] 			 @195 --> read burst = 0
[SLV DRV] 			 @195 --> read size = 2
[SLV DRV] 			 @195 --> read addr = f3791a5
[SLV DRV] 			 @195 --> read data= 9c0000000000
+++++++++++++++++++++++++++++++++++++++++++++++++++++++++++++++++++++
time                 195
##########################################################
[SLV DRV] 		@205 --> write address = ba13d458
[SLV DRV] 		@205 --> write size = 8
[SLV DRV] 		@205 --> write len  = 40
[SLV DRV] 		 @205 --> mem[17427a8b] = 11e9d262b48a547b
++++++++++++++++++++++++ [ beat = 3 ] ++++++++++++++++++++++++++++++++++++++++
[SLV DRV] 			 @205 --> read burst = 0
[SLV DRV] 			 @205 --> read size = 2
[SLV DRV] 			 @205 --> read addr = f3791a5
[SLV DRV] 			 @205 --> read data= 9c0000000000
+++++++++++++++++++++++++++++++++++++++++++++++++++++++++++++++++++++
time                 205
##########################################################
[SLV DRV] 		@215 --> write address = ba13d460
[SLV DRV] 		@215 --> write size = 8
[SLV DRV] 		@215 --> write len  = 40
[SLV DRV] 		 @215 --> mem[17427a8c] = 153067a03c815d1f
++++++++++++++++++++++++ [ beat = 4 ] ++++++++++++++++++++++++++++++++++++++++
[SLV DRV] 			 @215 --> read burst = 0
[SLV DRV] 			 @215 --> read size = 2
[SLV DRV] 			 @215 --> read addr = f3791a5
[SLV DRV] 			 @215 --> read data= 9c0000000000
+++++++++++++++++++++++++++++++++++++++++++++++++++++++++++++++++++++
time                 215
##########################################################
[SLV DRV] 		@225 --> write address = ba13d468
[SLV DRV] 		@225 --> write size = 8
[SLV DRV] 		@225 --> write len  = 40
[SLV DRV] 		 @225 --> mem[17427a8d] = f55a38565b1aa898
++++++++++++++++++++++++ [ beat = 5 ] ++++++++++++++++++++++++++++++++++++++++
[SLV DRV] 			 @225 --> read burst = 0
[SLV DRV] 			 @225 --> read size = 2
[SLV DRV] 			 @225 --> read addr = f3791a5
[SLV DRV] 			 @225 --> read data= 9c0000000000
+++++++++++++++++++++++++++++++++++++++++++++++++++++++++++++++++++++
time                 225
##########################################################
[SLV DRV] 		@235 --> write address = ba13d470
[SLV DRV] 		@235 --> write size = 8
[SLV DRV] 		@235 --> write len  = 40
[SLV DRV] 		 @235 --> mem[17427a8e] = abc0705d734639d4
++++++++++++++++++++++++ [ beat = 6 ] ++++++++++++++++++++++++++++++++++++++++
[SLV DRV] 			 @235 --> read burst = 0
[SLV DRV] 			 @235 --> read size = 2
[SLV DRV] 			 @235 --> read addr = f3791a5
[SLV DRV] 			 @235 --> read data= 9c0000000000
+++++++++++++++++++++++++++++++++++++++++++++++++++++++++++++++++++++
time                 235
##########################################################
[SLV DRV] 		@245 --> write address = ba13d478
[SLV DRV] 		@245 --> write size = 8
[SLV DRV] 		@245 --> write len  = 40
[SLV DRV] 		 @245 --> mem[17427a8f] = c80825370d2a06b6
++++++++++++++++++++++++ [ beat = 7 ] ++++++++++++++++++++++++++++++++++++++++
[SLV DRV] 			 @245 --> read burst = 0
[SLV DRV] 			 @245 --> read size = 2
[SLV DRV] 			 @245 --> read addr = f3791a5
[SLV DRV] 			 @245 --> read data= 9c0000000000
+++++++++++++++++++++++++++++++++++++++++++++++++++++++++++++++++++++
time                 245
[MST DRV] --> .... @245 WLAST Asserted
##########################################################
[SLV DRV] 		@255 --> write address = ba13d480
[SLV DRV] 		@255 --> write size = 8
[SLV DRV] 		@255 --> write len  = 40
[SLV DRV] 		 @255 --> mem[17427a90] = d6e86ccf02941183
++++++++++++++++++++++++ [ beat = 8 ] ++++++++++++++++++++++++++++++++++++++++
[SLV DRV] 			 @255 --> read burst = 0
[SLV DRV] 			 @255 --> read size = 2
[SLV DRV] 			 @255 --> read addr = f3791a5
[SLV DRV] 			 @255 --> read data= 9c0000000000
+++++++++++++++++++++++++++++++++++++++++++++++++++++++++++++++++++++
time                 255
[MST DRV] --> .... @255 WLAST Deasserted
++++++++++++++++++++++++ [ beat = 9 ] ++++++++++++++++++++++++++++++++++++++++
[SLV DRV] 			 @265 --> read burst = 0
[SLV DRV] 			 @265 --> read size = 2
[SLV DRV] 			 @265 --> read addr = f3791a5
[SLV DRV] 			 @265 --> read data= 9c0000000000
+++++++++++++++++++++++++++++++++++++++++++++++++++++++++++++++++++++
time                 265
'{transaction_type:READ, addr:'hf3791a5, burst:FIXED, len:'h9, size:'h1, data:'{'h9c0000000000, 'h9c0000000000, 'h9c0000000000, 'h9c0000000000, 'h9c0000000000, 'h9c0000000000, 'h9c0000000000, 'h9c0000000000, 'h9c0000000000, 'h9c0000000000} , rresp:'{OKAY, OKAY, OKAY, OKAY, OKAY, OKAY, OKAY, OKAY, OKAY, OKAY} , wstrb:'{}, bresp:OKAY, errors:NO_ERROR}
time                 275
time                 275
'{transaction_type:WRITE, addr:'hba13d457, burst:INCR, len:'h6, size:'h3, data:'{'h6b0024eb59e93d4, 'h11e9d262b48a547b, 'h153067a03c815d1f, 'hf55a38565b1aa898, 'habc0705d734639d4, 'hc80825370d2a06b6, 'hd6e86ccf02941183} , rresp:'{}, wstrb:'{'h80, 'hff, 'hff, 'hff, 'hff, 'hff, 'hff} , bresp:OKAY, errors:NO_ERROR}
+=========================================================================================+
| Transaction Type :      WRITE [MONITOR FOR WRITE] @  285                                       |
+=========================================================================================+
| Sr No  |            Name |                           Type | Size |                Value |
+=========================================================================================+
|     1. |            addr |                      bit[31:0] |   32 |           3121861719 |
|     2. |           burst |       enum $unit::burst_type_e |    2 |                 INCR |
|     3. |             len |                       bit[7:0] |    8 |                    6 |
|     4. |            size |                       bit[2:0] |    3 |                    3 |
|     5. |         data[0] |                      bit[63:0] |   64 |   481887697206416340 |
|        |         data[1] |                      bit[63:0] |   64 |  1290794089595950203 |
|        |         data[2] |                      bit[63:0] |   64 |  1526834211586137375 |
|        |         data[3] |                      bit[63:0] |   64 | 17679505230743120024 |
|        |         data[4] |                      bit[63:0] |   64 | 12376015322682374612 |
|        |         data[5] |                      bit[63:0] |   64 | 14413811525773559478 |
|        |         data[6] |                      bit[63:0] |   64 | 15485746955070738819 |
|     6. |        wstrb[0] |                       bit[7:0] |    8 |                  128 |
|        |        wstrb[1] |                       bit[7:0] |    8 |                  255 |
|        |        wstrb[2] |                       bit[7:0] |    8 |                  255 |
|        |        wstrb[3] |                       bit[7:0] |    8 |                  255 |
|        |        wstrb[4] |                       bit[7:0] |    8 |                  255 |
|        |        wstrb[5] |                       bit[7:0] |    8 |                  255 |
|        |        wstrb[6] |                       bit[7:0] |    8 |                  255 |
|     7. |           bresp |         enum $unit::response_e |    2 |                 OKAY |
+=========================================================================================+
no_of_trans_monitored = 2
got from reference
+=========================================================================================+
| Transaction Type :       READ     [GOLDEN] @  325                                       |
+=========================================================================================+
| Sr No  |            Name |                           Type | Size |                Value |
+=========================================================================================+
|     1. |            addr |                      bit[31:0] |   32 |            255300005 |
|     2. |           burst |       enum $unit::burst_type_e |    2 |                FIXED |
|     3. |             len |                       bit[7:0] |    8 |                    9 |
|     4. |            size |                       bit[2:0] |    3 |                    1 |
|     5. |         data[0] |                      bit[63:0] |   64 |      171523813933056 |
|        |         data[1] |                      bit[63:0] |   64 |      171523813933056 |
|        |         data[2] |                      bit[63:0] |   64 |      171523813933056 |
|        |         data[3] |                      bit[63:0] |   64 |      171523813933056 |
|        |         data[4] |                      bit[63:0] |   64 |      171523813933056 |
|        |         data[5] |                      bit[63:0] |   64 |      171523813933056 |
|        |         data[6] |                      bit[63:0] |   64 |      171523813933056 |
|        |         data[7] |                      bit[63:0] |   64 |      171523813933056 |
|        |         data[8] |                      bit[63:0] |   64 |      171523813933056 |
|        |         data[9] |                      bit[63:0] |   64 |      171523813933056 |
|     6. |        rresp[0] |         enum $unit::response_e |    2 |                 OKAY |
|        |        rresp[1] |         enum $unit::response_e |    2 |                 OKAY |
|        |        rresp[2] |         enum $unit::response_e |    2 |                 OKAY |
|        |        rresp[3] |         enum $unit::response_e |    2 |                 OKAY |
|        |        rresp[4] |         enum $unit::response_e |    2 |                 OKAY |
|        |        rresp[5] |         enum $unit::response_e |    2 |                 OKAY |
|        |        rresp[6] |         enum $unit::response_e |    2 |                 OKAY |
|        |        rresp[7] |         enum $unit::response_e |    2 |                 OKAY |
|        |        rresp[8] |         enum $unit::response_e |    2 |                 OKAY |
|        |        rresp[9] |         enum $unit::response_e |    2 |                 OKAY |
+=========================================================================================+
got from monitor
+=========================================================================================+
| Transaction Type :       READ       [TRAN] @  325                                       |
+=========================================================================================+
| Sr No  |            Name |                           Type | Size |                Value |
+=========================================================================================+
|     1. |            addr |                      bit[31:0] |   32 |            255300005 |
|     2. |           burst |       enum $unit::burst_type_e |    2 |                FIXED |
|     3. |             len |                       bit[7:0] |    8 |                    9 |
|     4. |            size |                       bit[2:0] |    3 |                    1 |
|     5. |         data[0] |                      bit[63:0] |   64 |      171523813933056 |
|        |         data[1] |                      bit[63:0] |   64 |      171523813933056 |
|        |         data[2] |                      bit[63:0] |   64 |      171523813933056 |
|        |         data[3] |                      bit[63:0] |   64 |      171523813933056 |
|        |         data[4] |                      bit[63:0] |   64 |      171523813933056 |
|        |         data[5] |                      bit[63:0] |   64 |      171523813933056 |
|        |         data[6] |                      bit[63:0] |   64 |      171523813933056 |
|        |         data[7] |                      bit[63:0] |   64 |      171523813933056 |
|        |         data[8] |                      bit[63:0] |   64 |      171523813933056 |
|        |         data[9] |                      bit[63:0] |   64 |      171523813933056 |
|     6. |        rresp[0] |         enum $unit::response_e |    2 |                 OKAY |
|        |        rresp[1] |         enum $unit::response_e |    2 |                 OKAY |
|        |        rresp[2] |         enum $unit::response_e |    2 |                 OKAY |
|        |        rresp[3] |         enum $unit::response_e |    2 |                 OKAY |
|        |        rresp[4] |         enum $unit::response_e |    2 |                 OKAY |
|        |        rresp[5] |         enum $unit::response_e |    2 |                 OKAY |
|        |        rresp[6] |         enum $unit::response_e |    2 |                 OKAY |
|        |        rresp[7] |         enum $unit::response_e |    2 |                 OKAY |
|        |        rresp[8] |         enum $unit::response_e |    2 |                 OKAY |
|        |        rresp[9] |         enum $unit::response_e |    2 |                 OKAY |
+=========================================================================================+
Hello
'{transaction_type:READ, addr:'hf3791a5, burst:FIXED, len:'h9, size:'h1, data:'{'h9c0000000000, 'h9c0000000000, 'h9c0000000000, 'h9c0000000000, 'h9c0000000000, 'h9c0000000000, 'h9c0000000000, 'h9c0000000000, 'h9c0000000000, 'h9c0000000000} , rresp:'{OKAY, OKAY, OKAY, OKAY, OKAY, OKAY, OKAY, OKAY, OKAY, OKAY} , wstrb:'{}, bresp:OKAY, errors:NO_ERROR}
'{transaction_type:READ, addr:'hf3791a5, burst:FIXED, len:'h9, size:'h1, data:'{'h9c0000000000, 'h9c0000000000, 'h9c0000000000, 'h9c0000000000, 'h9c0000000000, 'h9c0000000000, 'h9c0000000000, 'h9c0000000000, 'h9c0000000000, 'h9c0000000000} , rresp:'{OKAY, OKAY, OKAY, OKAY, OKAY, OKAY, OKAY, OKAY, OKAY, OKAY} , wstrb:'{}, bresp:OKAY, errors:NO_ERROR}
@325 Transaction Passed!
no_of_trans_monitored = 3
[GEN] ==================== Randomizing ========================
+=========================================================================================+
| Transaction Type :       READ              @  325                                       |
+=========================================================================================+
| Sr No  |            Name |                           Type | Size |                Value |
+=========================================================================================+
|     1. |            addr |                      bit[31:0] |   32 |           3121861719 |
|     2. |           burst |       enum $unit::burst_type_e |    2 |                 INCR |
|     3. |             len |                       bit[7:0] |    8 |                    6 |
|     4. |            size |                       bit[2:0] |    3 |                    3 |
|     5. |         data[0] |                      bit[63:0] |   64 |                    0 |
+=========================================================================================+
|     6. |        rresp[0] |         enum $unit::response_e |    2 |                 OKAY |
+=========================================================================================+
[GEN] ==================== Randomizing ========================
+=========================================================================================+
| Transaction Type :      WRITE              @  325                                       |
+=========================================================================================+
| Sr No  |            Name |                           Type | Size |                Value |
+=========================================================================================+
|     1. |            addr |                      bit[31:0] |   32 |           1131929129 |
|     2. |           burst |       enum $unit::burst_type_e |    2 |                FIXED |
|     3. |             len |                       bit[7:0] |    8 |                    5 |
|     4. |            size |                       bit[2:0] |    3 |                    3 |
|     5. |         data[0] |                      bit[63:0] |   64 |  9686376479874601323 |
|        |         data[1] |                      bit[63:0] |   64 | 10822193649129326467 |
|        |         data[2] |                      bit[63:0] |   64 |   992895732274418845 |
|        |         data[3] |                      bit[63:0] |   64 |   566476053259231209 |
|        |         data[4] |                      bit[63:0] |   64 | 11579766081234545562 |
|        |         data[5] |                      bit[63:0] |   64 |  8429447682859531679 |
|     6. |        wstrb[0] |                       bit[7:0] |    8 |                  254 |
|        |        wstrb[1] |                       bit[7:0] |    8 |                  254 |
|        |        wstrb[2] |                       bit[7:0] |    8 |                  254 |
|        |        wstrb[3] |                       bit[7:0] |    8 |                  254 |
|        |        wstrb[4] |                       bit[7:0] |    8 |                  254 |
|        |        wstrb[5] |                       bit[7:0] |    8 |                  254 |
|     7. |           bresp |         enum $unit::response_e |    2 |                 OKAY |
+=========================================================================================+
[Write Address Channel] 		@345 --> AWVALID & AWREADY Handshaked 
[Write Address Channel] 		@345 --> write data queue = '{{ ref to class ei_axi4_transaction_c#(64,32)}} 
------------------------------------------------------------
------------------------------------------------------------
[Write Address Channel] 		@345 --> AWREADY Asserted
[Write Address Channel] 		@345 ARVALID & ARREADY Handshaked 
----------------------------------------------------------:---
@345 write handshake occured -> 1131929129
@345 read handshake occured -> 3121861719
@345 write handshake occured -> 1131929129
@345 read handshake occured -> 3121861719
++++++++++++++++++++++++ [ beat = 0 ] ++++++++++++++++++++++++++++++++++++++++
[SLV DRV] 			 @345 --> read burst = 1
[SLV DRV] 			 @345 --> read size = 8
[SLV DRV] 			 @345 --> read addr = ba13d457
[SLV DRV] 			 @345 --> read data= 600000000000000
+++++++++++++++++++++++++++++++++++++++++++++++++++++++++++++++++++++
time                 345
++++++++++++++++++++++++ [ beat = 1 ] ++++++++++++++++++++++++++++++++++++++++
[SLV DRV] 			 @355 --> read burst = 1
[SLV DRV] 			 @355 --> read size = 8
[SLV DRV] 			 @355 --> read addr = ba13d458
[SLV DRV] 			 @355 --> read addr = ba13d458
[SLV DRV] 			 @355 --> read addr = ba13d458
[SLV DRV] 			 @355 --> read addr = ba13d458
[SLV DRV] 			 @355 --> read addr = ba13d458
[SLV DRV] 			 @355 --> read addr = ba13d458
[SLV DRV] 			 @355 --> read addr = ba13d458
[SLV DRV] 			 @355 --> read addr = ba13d458
[SLV DRV] 			 @355 --> read data= 11e9d262b48a547b
+++++++++++++++++++++++++++++++++++++++++++++++++++++++++++++++++++++
time                 355
##########################################################
[SLV DRV] 		@365 --> write address = 4377de29
[SLV DRV] 		@365 --> write size = 8
[SLV DRV] 		@365 --> write len  = 20
[SLV DRV] 		 @365 --> mem[86efbc5] = 866cec167b9fd100
++++++++++++++++++++++++ [ beat = 2 ] ++++++++++++++++++++++++++++++++++++++++
[SLV DRV] 			 @365 --> read burst = 1
[SLV DRV] 			 @365 --> read size = 8
[SLV DRV] 			 @365 --> read addr = ba13d460
[SLV DRV] 			 @365 --> read addr = ba13d460
[SLV DRV] 			 @365 --> read addr = ba13d460
[SLV DRV] 			 @365 --> read addr = ba13d460
[SLV DRV] 			 @365 --> read addr = ba13d460
[SLV DRV] 			 @365 --> read addr = ba13d460
[SLV DRV] 			 @365 --> read addr = ba13d460
[SLV DRV] 			 @365 --> read addr = ba13d460
[SLV DRV] 			 @365 --> read data= 153067a03c815d1f
+++++++++++++++++++++++++++++++++++++++++++++++++++++++++++++++++++++
time                 365
##########################################################
[SLV DRV] 		@375 --> write address = 4377de29
[SLV DRV] 		@375 --> write size = 8
[SLV DRV] 		@375 --> write len  = 20
[SLV DRV] 		 @375 --> mem[86efbc5] = 963027c912d78700
++++++++++++++++++++++++ [ beat = 3 ] ++++++++++++++++++++++++++++++++++++++++
[SLV DRV] 			 @375 --> read burst = 1
[SLV DRV] 			 @375 --> read size = 8
[SLV DRV] 			 @375 --> read addr = ba13d468
[SLV DRV] 			 @375 --> read addr = ba13d468
[SLV DRV] 			 @375 --> read addr = ba13d468
[SLV DRV] 			 @375 --> read addr = ba13d468
[SLV DRV] 			 @375 --> read addr = ba13d468
[SLV DRV] 			 @375 --> read addr = ba13d468
[SLV DRV] 			 @375 --> read addr = ba13d468
[SLV DRV] 			 @375 --> read addr = ba13d468
[SLV DRV] 			 @375 --> read data= f55a38565b1aa898
+++++++++++++++++++++++++++++++++++++++++++++++++++++++++++++++++++++
time                 375
##########################################################
[SLV DRV] 		@385 --> write address = 4377de29
[SLV DRV] 		@385 --> write size = 8
[SLV DRV] 		@385 --> write len  = 20
[SLV DRV] 		 @385 --> mem[86efbc5] = dc779686d37d400
++++++++++++++++++++++++ [ beat = 4 ] ++++++++++++++++++++++++++++++++++++++++
[SLV DRV] 			 @385 --> read burst = 1
[SLV DRV] 			 @385 --> read size = 8
[SLV DRV] 			 @385 --> read addr = ba13d470
[SLV DRV] 			 @385 --> read addr = ba13d470
[SLV DRV] 			 @385 --> read addr = ba13d470
[SLV DRV] 			 @385 --> read addr = ba13d470
[SLV DRV] 			 @385 --> read addr = ba13d470
[SLV DRV] 			 @385 --> read addr = ba13d470
[SLV DRV] 			 @385 --> read addr = ba13d470
[SLV DRV] 			 @385 --> read addr = ba13d470
[SLV DRV] 			 @385 --> read data= abc0705d734639d4
+++++++++++++++++++++++++++++++++++++++++++++++++++++++++++++++++++++
time                 385
##########################################################
[SLV DRV] 		@395 --> write address = 4377de29
[SLV DRV] 		@395 --> write size = 8
[SLV DRV] 		@395 --> write len  = 20
[SLV DRV] 		 @395 --> mem[86efbc5] = 7dc86f818481f00
++++++++++++++++++++++++ [ beat = 5 ] ++++++++++++++++++++++++++++++++++++++++
[SLV DRV] 			 @395 --> read burst = 1
[SLV DRV] 			 @395 --> read size = 8
[SLV DRV] 			 @395 --> read addr = ba13d478
[SLV DRV] 			 @395 --> read addr = ba13d478
[SLV DRV] 			 @395 --> read addr = ba13d478
[SLV DRV] 			 @395 --> read addr = ba13d478
[SLV DRV] 			 @395 --> read addr = ba13d478
[SLV DRV] 			 @395 --> read addr = ba13d478
[SLV DRV] 			 @395 --> read addr = ba13d478
[SLV DRV] 			 @395 --> read addr = ba13d478
[SLV DRV] 			 @395 --> read data= c80825370d2a06b6
+++++++++++++++++++++++++++++++++++++++++++++++++++++++++++++++++++++
time                 395
##########################################################
[SLV DRV] 		@405 --> write address = 4377de29
[SLV DRV] 		@405 --> write size = 8
[SLV DRV] 		@405 --> write len  = 20
[SLV DRV] 		 @405 --> mem[86efbc5] = a0b397e60e1a2b00
++++++++++++++++++++++++ [ beat = 6 ] ++++++++++++++++++++++++++++++++++++++++
[SLV DRV] 			 @405 --> read burst = 1
[SLV DRV] 			 @405 --> read size = 8
[SLV DRV] 			 @405 --> read addr = ba13d480
[SLV DRV] 			 @405 --> read addr = ba13d480
[SLV DRV] 			 @405 --> read addr = ba13d480
[SLV DRV] 			 @405 --> read addr = ba13d480
[SLV DRV] 			 @405 --> read addr = ba13d480
[SLV DRV] 			 @405 --> read addr = ba13d480
[SLV DRV] 			 @405 --> read addr = ba13d480
[SLV DRV] 			 @405 --> read addr = ba13d480
[SLV DRV] 			 @405 --> read data= d6e86ccf02941183
+++++++++++++++++++++++++++++++++++++++++++++++++++++++++++++++++++++
time                 405
[MST DRV] --> .... @405 WLAST Asserted
'{transaction_type:READ, addr:'hba13d457, burst:INCR, len:'h6, size:'h3, data:'{'h600000000000000, 'h11e9d262b48a547b, 'h153067a03c815d1f, 'hf55a38565b1aa898, 'habc0705d734639d4, 'hc80825370d2a06b6, 'hd6e86ccf02941183} , rresp:'{OKAY, OKAY, OKAY, OKAY, OKAY, OKAY, OKAY} , wstrb:'{}, bresp:OKAY, errors:NO_ERROR}
##########################################################
[SLV DRV] 		@415 --> write address = 4377de29
[SLV DRV] 		@415 --> write size = 8
[SLV DRV] 		@415 --> write len  = 20
[SLV DRV] 		 @415 --> mem[86efbc5] = 74fb6a01a594fd00
time                 415
time                 415
[MST DRV] --> .... @415 WLAST Deasserted
'{transaction_type:WRITE, addr:'h4377de29, burst:FIXED, len:'h5, size:'h3, data:'{'h866cec167b9fd16b, 'h963027c912d78783, 'hdc779686d37d49d, 'h7dc86f818481fe9, 'ha0b397e60e1a2b9a, 'h74fb6a01a594fd9f} , rresp:'{}, wstrb:'{'hfe, 'hfe, 'hfe, 'hfe, 'hfe, 'hfe} , bresp:OKAY, errors:NO_ERROR}
+=========================================================================================+
| Transaction Type :      WRITE [MONITOR FOR WRITE] @  445                                       |
+=========================================================================================+
| Sr No  |            Name |                           Type | Size |                Value |
+=========================================================================================+
|     1. |            addr |                      bit[31:0] |   32 |           1131929129 |
|     2. |           burst |       enum $unit::burst_type_e |    2 |                FIXED |
|     3. |             len |                       bit[7:0] |    8 |                    5 |
|     4. |            size |                       bit[2:0] |    3 |                    3 |
|     5. |         data[0] |                      bit[63:0] |   64 |  9686376479874601323 |
|        |         data[1] |                      bit[63:0] |   64 | 10822193649129326467 |
|        |         data[2] |                      bit[63:0] |   64 |   992895732274418845 |
|        |         data[3] |                      bit[63:0] |   64 |   566476053259231209 |
|        |         data[4] |                      bit[63:0] |   64 | 11579766081234545562 |
|        |         data[5] |                      bit[63:0] |   64 |  8429447682859531679 |
|     6. |        wstrb[0] |                       bit[7:0] |    8 |                  254 |
|        |        wstrb[1] |                       bit[7:0] |    8 |                  254 |
|        |        wstrb[2] |                       bit[7:0] |    8 |                  254 |
|        |        wstrb[3] |                       bit[7:0] |    8 |                  254 |
|        |        wstrb[4] |                       bit[7:0] |    8 |                  254 |
|        |        wstrb[5] |                       bit[7:0] |    8 |                  254 |
|     7. |           bresp |         enum $unit::response_e |    2 |                 OKAY |
+=========================================================================================+
no_of_trans_monitored = 4
[GEN] ==================== Randomizing ========================
+=========================================================================================+
| Transaction Type :       READ              @  445                                       |
+=========================================================================================+
| Sr No  |            Name |                           Type | Size |                Value |
+=========================================================================================+
|     1. |            addr |                      bit[31:0] |   32 |           1131929129 |
|     2. |           burst |       enum $unit::burst_type_e |    2 |                FIXED |
|     3. |             len |                       bit[7:0] |    8 |                    5 |
|     4. |            size |                       bit[2:0] |    3 |                    3 |
|     5. |         data[0] |                      bit[63:0] |   64 |                    0 |
+=========================================================================================+
|     6. |        rresp[0] |         enum $unit::response_e |    2 |                 OKAY |
+=========================================================================================+
[GEN] ==================== Randomizing ========================
+=========================================================================================+
| Transaction Type :      WRITE              @  445                                       |
+=========================================================================================+
| Sr No  |            Name |                           Type | Size |                Value |
+=========================================================================================+
|     1. |            addr |                      bit[31:0] |   32 |           1165602752 |
|     2. |           burst |       enum $unit::burst_type_e |    2 |                FIXED |
|     3. |             len |                       bit[7:0] |    8 |                    2 |
|     4. |            size |                       bit[2:0] |    3 |                    2 |
|     5. |         data[0] |                      bit[63:0] |   64 |   581367583556891450 |
|        |         data[1] |                      bit[63:0] |   64 | 13888370121200491918 |
|        |         data[2] |                      bit[63:0] |   64 |  3759260208304455965 |
|     6. |        wstrb[0] |                       bit[7:0] |    8 |                   15 |
|        |        wstrb[1] |                       bit[7:0] |    8 |                   15 |
|        |        wstrb[2] |                       bit[7:0] |    8 |                   15 |
|     7. |           bresp |         enum $unit::response_e |    2 |                 OKAY |
+=========================================================================================+
[Write Address Channel] 		@465 --> AWVALID & AWREADY Handshaked 
[Write Address Channel] 		@465 --> write data queue = '{{ ref to class ei_axi4_transaction_c#(64,32)}} 
------------------------------------------------------------
------------------------------------------------------------
[Write Address Channel] 		@465 --> AWREADY Asserted
[Write Address Channel] 		@465 ARVALID & ARREADY Handshaked 
----------------------------------------------------------:---
@465 write handshake occured -> 1165602752
@465 read handshake occured -> 1131929129
@465 write handshake occured -> 1165602752
@465 read handshake occured -> 1131929129
++++++++++++++++++++++++ [ beat = 0 ] ++++++++++++++++++++++++++++++++++++++++
[SLV DRV] 			 @465 --> read burst = 0
[SLV DRV] 			 @465 --> read size = 8
[SLV DRV] 			 @465 --> read addr = 4377de29
[SLV DRV] 			 @465 --> read addr = 4377de29
[SLV DRV] 			 @465 --> read addr = 4377de29
[SLV DRV] 			 @465 --> read addr = 4377de29
[SLV DRV] 			 @465 --> read addr = 4377de29
[SLV DRV] 			 @465 --> read addr = 4377de29
[SLV DRV] 			 @465 --> read addr = 4377de29
[SLV DRV] 			 @465 --> read data= 74fb6a01a594fd00
+++++++++++++++++++++++++++++++++++++++++++++++++++++++++++++++++++++
time                 465
got from reference
+=========================================================================================+
| Transaction Type :       READ     [GOLDEN] @  465                                       |
+=========================================================================================+
| Sr No  |            Name |                           Type | Size |                Value |
+=========================================================================================+
|     1. |            addr |                      bit[31:0] |   32 |           3121861719 |
|     2. |           burst |       enum $unit::burst_type_e |    2 |                 INCR |
|     3. |             len |                       bit[7:0] |    8 |                    6 |
|     4. |            size |                       bit[2:0] |    3 |                    3 |
|     5. |         data[0] |                      bit[63:0] |   64 |   432345564227567616 |
|        |         data[1] |                      bit[63:0] |   64 |  1290794089595950203 |
|        |         data[2] |                      bit[63:0] |   64 |  1526834211586137375 |
|        |         data[3] |                      bit[63:0] |   64 | 17679505230743120024 |
|        |         data[4] |                      bit[63:0] |   64 | 12376015322682374612 |
|        |         data[5] |                      bit[63:0] |   64 | 14413811525773559478 |
|        |         data[6] |                      bit[63:0] |   64 | 15485746955070738819 |
|     6. |        rresp[0] |         enum $unit::response_e |    2 |                 OKAY |
|        |        rresp[1] |         enum $unit::response_e |    2 |                 OKAY |
|        |        rresp[2] |         enum $unit::response_e |    2 |                 OKAY |
|        |        rresp[3] |         enum $unit::response_e |    2 |                 OKAY |
|        |        rresp[4] |         enum $unit::response_e |    2 |                 OKAY |
|        |        rresp[5] |         enum $unit::response_e |    2 |                 OKAY |
|        |        rresp[6] |         enum $unit::response_e |    2 |                 OKAY |
+=========================================================================================+
got from monitor
+=========================================================================================+
| Transaction Type :       READ       [TRAN] @  465                                       |
+=========================================================================================+
| Sr No  |            Name |                           Type | Size |                Value |
+=========================================================================================+
|     1. |            addr |                      bit[31:0] |   32 |           3121861719 |
|     2. |           burst |       enum $unit::burst_type_e |    2 |                 INCR |
|     3. |             len |                       bit[7:0] |    8 |                    6 |
|     4. |            size |                       bit[2:0] |    3 |                    3 |
|     5. |         data[0] |                      bit[63:0] |   64 |   432345564227567616 |
|        |         data[1] |                      bit[63:0] |   64 |  1290794089595950203 |
|        |         data[2] |                      bit[63:0] |   64 |  1526834211586137375 |
|        |         data[3] |                      bit[63:0] |   64 | 17679505230743120024 |
|        |         data[4] |                      bit[63:0] |   64 | 12376015322682374612 |
|        |         data[5] |                      bit[63:0] |   64 | 14413811525773559478 |
|        |         data[6] |                      bit[63:0] |   64 | 15485746955070738819 |
|     6. |        rresp[0] |         enum $unit::response_e |    2 |                 OKAY |
|        |        rresp[1] |         enum $unit::response_e |    2 |                 OKAY |
|        |        rresp[2] |         enum $unit::response_e |    2 |                 OKAY |
|        |        rresp[3] |         enum $unit::response_e |    2 |                 OKAY |
|        |        rresp[4] |         enum $unit::response_e |    2 |                 OKAY |
|        |        rresp[5] |         enum $unit::response_e |    2 |                 OKAY |
|        |        rresp[6] |         enum $unit::response_e |    2 |                 OKAY |
+=========================================================================================+
@465 Transaction Passed!
no_of_trans_monitored = 5
[GEN] ==================== Randomizing ========================
+=========================================================================================+
| Transaction Type :       READ              @  465                                       |
+=========================================================================================+
| Sr No  |            Name |                           Type | Size |                Value |
+=========================================================================================+
|     1. |            addr |                      bit[31:0] |   32 |           1165602752 |
|     2. |           burst |       enum $unit::burst_type_e |    2 |                FIXED |
|     3. |             len |                       bit[7:0] |    8 |                    2 |
|     4. |            size |                       bit[2:0] |    3 |                    2 |
|     5. |         data[0] |                      bit[63:0] |   64 |                    0 |
+=========================================================================================+
|     6. |        rresp[0] |         enum $unit::response_e |    2 |                 OKAY |
+=========================================================================================+
[GEN] ==================== Randomizing ========================
+=========================================================================================+
| Transaction Type :      WRITE              @  465                                       |
+=========================================================================================+
| Sr No  |            Name |                           Type | Size |                Value |
+=========================================================================================+
|     1. |            addr |                      bit[31:0] |   32 |            130821562 |
|     2. |           burst |       enum $unit::burst_type_e |    2 |                 INCR |
|     3. |             len |                       bit[7:0] |    8 |                   84 |
|     4. |            size |                       bit[2:0] |    3 |                    1 |
|     5. |         data[0] |                      bit[63:0] |   64 |   892105010334622523 |
|        |         data[1] |                      bit[63:0] |   64 | 14647149746292809701 |
|        |         data[2] |                      bit[63:0] |   64 |  2422653536289792252 |
|        |         data[3] |                      bit[63:0] |   64 |  2986874526975165892 |
|        |         data[4] |                      bit[63:0] |   64 | 12983166690308809796 |
|        |         data[5] |                      bit[63:0] |   64 | 17881066953941686151 |
|        |         data[6] |                      bit[63:0] |   64 |  1182953491133965684 |
|        |         data[7] |                      bit[63:0] |   64 | 13673075152453704451 |
|        |         data[8] |                      bit[63:0] |   64 |  2395620179121983565 |
|        |         data[9] |                      bit[63:0] |   64 |  1950858914286303842 |
|        |        data[10] |                      bit[63:0] |   64 | 15750054239359908288 |
|        |        data[11] |                      bit[63:0] |   64 | 14548202027634447660 |
|        |        data[12] |                      bit[63:0] |   64 | 11295853265224697207 |
|        |        data[13] |                      bit[63:0] |   64 | 16074919587538453642 |
|        |        data[14] |                      bit[63:0] |   64 | 12402786721862601802 |
|        |        data[15] |                      bit[63:0] |   64 | 10723025943104772584 |
|        |        data[16] |                      bit[63:0] |   64 | 11164034742346236934 |
|        |        data[17] |                      bit[63:0] |   64 | 18345816664706395395 |
|        |        data[18] |                      bit[63:0] |   64 |  2539005589303538485 |
|        |        data[19] |                      bit[63:0] |   64 | 14912301259228861194 |
|        |        data[20] |                      bit[63:0] |   64 | 10709079211452041162 |
|        |        data[21] |                      bit[63:0] |   64 |  5591730803987588702 |
|        |        data[22] |                      bit[63:0] |   64 |  1814039719492219888 |
|        |        data[23] |                      bit[63:0] |   64 |  2315880474732340823 |
|        |        data[24] |                      bit[63:0] |   64 | 12855684224649874209 |
|        |        data[25] |                      bit[63:0] |   64 | 10446671290660375412 |
|        |        data[26] |                      bit[63:0] |   64 |  5237600372357483946 |
|        |        data[27] |                      bit[63:0] |   64 |  7921025082430013795 |
|        |        data[28] |                      bit[63:0] |   64 | 14157541957116372034 |
|        |        data[29] |                      bit[63:0] |   64 |  9473401866480732715 |
|        |        data[30] |                      bit[63:0] |   64 | 15875964172421331537 |
|        |        data[31] |                      bit[63:0] |   64 | 12699569086816877965 |
|        |        data[32] |                      bit[63:0] |   64 |  2461405565979195145 |
|        |        data[33] |                      bit[63:0] |   64 |  7028903360849675263 |
|        |        data[34] |                      bit[63:0] |   64 | 12949680807442020788 |
|        |        data[35] |                      bit[63:0] |   64 |  4675165193184512739 |
|        |        data[36] |                      bit[63:0] |   64 |  9741307336944472838 |
|        |        data[37] |                      bit[63:0] |   64 |  3673034742086986480 |
|        |        data[38] |                      bit[63:0] |   64 |  3867918234147830241 |
|        |        data[39] |                      bit[63:0] |   64 |  2560399869101581356 |
|        |        data[40] |                      bit[63:0] |   64 | 17451173721581752430 |
|        |        data[41] |                      bit[63:0] |   64 |  3480272112955014750 |
|        |        data[42] |                      bit[63:0] |   64 |  2026178912662985354 |
|        |        data[43] |                      bit[63:0] |   64 |  4540405333787322690 |
|        |        data[44] |                      bit[63:0] |   64 | 17882869737654859866 |
|        |        data[45] |                      bit[63:0] |   64 | 16198973389504282765 |
|        |        data[46] |                      bit[63:0] |   64 |  3916316346950053781 |
|        |        data[47] |                      bit[63:0] |   64 | 17358861856161671185 |
|        |        data[48] |                      bit[63:0] |   64 | 17054091226526374872 |
|        |        data[49] |                      bit[63:0] |   64 |  5314560541893313758 |
|        |        data[50] |                      bit[63:0] |   64 | 17977112593576099990 |
|        |        data[51] |                      bit[63:0] |   64 |  3157031607325626588 |
|        |        data[52] |                      bit[63:0] |   64 | 14918012350027486181 |
|        |        data[53] |                      bit[63:0] |   64 |   913038677304868564 |
|        |        data[54] |                      bit[63:0] |   64 | 13216044828611586626 |
|        |        data[55] |                      bit[63:0] |   64 |  1750497137488666144 |
|        |        data[56] |                      bit[63:0] |   64 | 14745977830968500157 |
|        |        data[57] |                      bit[63:0] |   64 | 15669881723328558021 |
|        |        data[58] |                      bit[63:0] |   64 | 16194286152786123754 |
|        |        data[59] |                      bit[63:0] |   64 |  8041196465691949074 |
|        |        data[60] |                      bit[63:0] |   64 | 11327315585583691408 |
|        |        data[61] |                      bit[63:0] |   64 |  1578576614828325224 |
|        |        data[62] |                      bit[63:0] |   64 | 18288866510498072098 |
|        |        data[63] |                      bit[63:0] |   64 | 17632715207851288659 |
|        |        data[64] |                      bit[63:0] |   64 | 13890728513373458248 |
|        |        data[65] |                      bit[63:0] |   64 |  3258061594270378676 |
|        |        data[66] |                      bit[63:0] |   64 |  2632190367684551042 |
|        |        data[67] |                      bit[63:0] |   64 | 10493235346138544802 |
|        |        data[68] |                      bit[63:0] |   64 | 12057795327190763923 |
|        |        data[69] |                      bit[63:0] |   64 |  5577076911272655240 |
|        |        data[70] |                      bit[63:0] |   64 | 17120618602277174956 |
|        |        data[71] |                      bit[63:0] |   64 |  7858295436363834557 |
|        |        data[72] |                      bit[63:0] |   64 |  1237187202812012536 |
|        |        data[73] |                      bit[63:0] |   64 |  8516354464932714412 |
|        |        data[74] |                      bit[63:0] |   64 | 16259008665664018566 |
|        |        data[75] |                      bit[63:0] |   64 | 10152153632550197135 |
|        |        data[76] |                      bit[63:0] |   64 |  6304095042858969996 |
|        |        data[77] |                      bit[63:0] |   64 | 15226668113200863817 |
|        |        data[78] |                      bit[63:0] |   64 | 15679840261786584267 |
|        |        data[79] |                      bit[63:0] |   64 |  6056360181206739624 |
|        |        data[80] |                      bit[63:0] |   64 | 12456427053112318237 |
|        |        data[81] |                      bit[63:0] |   64 | 10603856294391057935 |
|        |        data[82] |                      bit[63:0] |   64 |  8456741888656549613 |
|        |        data[83] |                      bit[63:0] |   64 | 17873021779923261962 |
|        |        data[84] |                      bit[63:0] |   64 |  6511314933070820048 |
|     6. |        wstrb[0] |                       bit[7:0] |    8 |                   12 |
|        |        wstrb[1] |                       bit[7:0] |    8 |                   48 |
|        |        wstrb[2] |                       bit[7:0] |    8 |                  192 |
|        |        wstrb[3] |                       bit[7:0] |    8 |                    3 |
|        |        wstrb[4] |                       bit[7:0] |    8 |                   12 |
|        |        wstrb[5] |                       bit[7:0] |    8 |                   48 |
|        |        wstrb[6] |                       bit[7:0] |    8 |                  192 |
|        |        wstrb[7] |                       bit[7:0] |    8 |                    3 |
|        |        wstrb[8] |                       bit[7:0] |    8 |                   12 |
|        |        wstrb[9] |                       bit[7:0] |    8 |                   48 |
|        |       wstrb[10] |                       bit[7:0] |    8 |                  192 |
|        |       wstrb[11] |                       bit[7:0] |    8 |                    3 |
|        |       wstrb[12] |                       bit[7:0] |    8 |                   12 |
|        |       wstrb[13] |                       bit[7:0] |    8 |                   48 |
|        |       wstrb[14] |                       bit[7:0] |    8 |                  192 |
|        |       wstrb[15] |                       bit[7:0] |    8 |                    3 |
|        |       wstrb[16] |                       bit[7:0] |    8 |                   12 |
|        |       wstrb[17] |                       bit[7:0] |    8 |                   48 |
|        |       wstrb[18] |                       bit[7:0] |    8 |                  192 |
|        |       wstrb[19] |                       bit[7:0] |    8 |                    3 |
|        |       wstrb[20] |                       bit[7:0] |    8 |                   12 |
|        |       wstrb[21] |                       bit[7:0] |    8 |                   48 |
|        |       wstrb[22] |                       bit[7:0] |    8 |                  192 |
|        |       wstrb[23] |                       bit[7:0] |    8 |                    3 |
|        |       wstrb[24] |                       bit[7:0] |    8 |                   12 |
|        |       wstrb[25] |                       bit[7:0] |    8 |                   48 |
|        |       wstrb[26] |                       bit[7:0] |    8 |                  192 |
|        |       wstrb[27] |                       bit[7:0] |    8 |                    3 |
|        |       wstrb[28] |                       bit[7:0] |    8 |                   12 |
|        |       wstrb[29] |                       bit[7:0] |    8 |                   48 |
|        |       wstrb[30] |                       bit[7:0] |    8 |                  192 |
|        |       wstrb[31] |                       bit[7:0] |    8 |                    3 |
|        |       wstrb[32] |                       bit[7:0] |    8 |                   12 |
|        |       wstrb[33] |                       bit[7:0] |    8 |                   48 |
|        |       wstrb[34] |                       bit[7:0] |    8 |                  192 |
|        |       wstrb[35] |                       bit[7:0] |    8 |                    3 |
|        |       wstrb[36] |                       bit[7:0] |    8 |                   12 |
|        |       wstrb[37] |                       bit[7:0] |    8 |                   48 |
|        |       wstrb[38] |                       bit[7:0] |    8 |                  192 |
|        |       wstrb[39] |                       bit[7:0] |    8 |                    3 |
|        |       wstrb[40] |                       bit[7:0] |    8 |                   12 |
|        |       wstrb[41] |                       bit[7:0] |    8 |                   48 |
|        |       wstrb[42] |                       bit[7:0] |    8 |                  192 |
|        |       wstrb[43] |                       bit[7:0] |    8 |                    3 |
|        |       wstrb[44] |                       bit[7:0] |    8 |                   12 |
|        |       wstrb[45] |                       bit[7:0] |    8 |                   48 |
|        |       wstrb[46] |                       bit[7:0] |    8 |                  192 |
|        |       wstrb[47] |                       bit[7:0] |    8 |                    3 |
|        |       wstrb[48] |                       bit[7:0] |    8 |                   12 |
|        |       wstrb[49] |                       bit[7:0] |    8 |                   48 |
|        |       wstrb[50] |                       bit[7:0] |    8 |                  192 |
|        |       wstrb[51] |                       bit[7:0] |    8 |                    3 |
|        |       wstrb[52] |                       bit[7:0] |    8 |                   12 |
|        |       wstrb[53] |                       bit[7:0] |    8 |                   48 |
|        |       wstrb[54] |                       bit[7:0] |    8 |                  192 |
|        |       wstrb[55] |                       bit[7:0] |    8 |                    3 |
|        |       wstrb[56] |                       bit[7:0] |    8 |                   12 |
|        |       wstrb[57] |                       bit[7:0] |    8 |                   48 |
|        |       wstrb[58] |                       bit[7:0] |    8 |                  192 |
|        |       wstrb[59] |                       bit[7:0] |    8 |                    3 |
|        |       wstrb[60] |                       bit[7:0] |    8 |                   12 |
|        |       wstrb[61] |                       bit[7:0] |    8 |                   48 |
|        |       wstrb[62] |                       bit[7:0] |    8 |                  192 |
|        |       wstrb[63] |                       bit[7:0] |    8 |                    3 |
|        |       wstrb[64] |                       bit[7:0] |    8 |                   12 |
|        |       wstrb[65] |                       bit[7:0] |    8 |                   48 |
|        |       wstrb[66] |                       bit[7:0] |    8 |                  192 |
|        |       wstrb[67] |                       bit[7:0] |    8 |                    3 |
|        |       wstrb[68] |                       bit[7:0] |    8 |                   12 |
|        |       wstrb[69] |                       bit[7:0] |    8 |                   48 |
|        |       wstrb[70] |                       bit[7:0] |    8 |                  192 |
|        |       wstrb[71] |                       bit[7:0] |    8 |                    3 |
|        |       wstrb[72] |                       bit[7:0] |    8 |                   12 |
|        |       wstrb[73] |                       bit[7:0] |    8 |                   48 |
|        |       wstrb[74] |                       bit[7:0] |    8 |                  192 |
|        |       wstrb[75] |                       bit[7:0] |    8 |                    3 |
|        |       wstrb[76] |                       bit[7:0] |    8 |                   12 |
|        |       wstrb[77] |                       bit[7:0] |    8 |                   48 |
|        |       wstrb[78] |                       bit[7:0] |    8 |                  192 |
|        |       wstrb[79] |                       bit[7:0] |    8 |                    3 |
|        |       wstrb[80] |                       bit[7:0] |    8 |                   12 |
|        |       wstrb[81] |                       bit[7:0] |    8 |                   48 |
|        |       wstrb[82] |                       bit[7:0] |    8 |                  192 |
|        |       wstrb[83] |                       bit[7:0] |    8 |                    3 |
|        |       wstrb[84] |                       bit[7:0] |    8 |                   12 |
|     7. |           bresp |         enum $unit::response_e |    2 |                 OKAY |
+=========================================================================================+
++++++++++++++++++++++++ [ beat = 1 ] ++++++++++++++++++++++++++++++++++++++++
[SLV DRV] 			 @475 --> read burst = 0
[SLV DRV] 			 @475 --> read size = 8
[SLV DRV] 			 @475 --> read addr = 4377de29
[SLV DRV] 			 @475 --> read addr = 4377de29
[SLV DRV] 			 @475 --> read addr = 4377de29
[SLV DRV] 			 @475 --> read addr = 4377de29
[SLV DRV] 			 @475 --> read addr = 4377de29
[SLV DRV] 			 @475 --> read addr = 4377de29
[SLV DRV] 			 @475 --> read addr = 4377de29
[SLV DRV] 			 @475 --> read data= 74fb6a01a594fd00
+++++++++++++++++++++++++++++++++++++++++++++++++++++++++++++++++++++
time                 475
[Write Address Channel] 		@485 --> AWVALID & AWREADY Handshaked 
[Write Address Channel] 		@485 --> write data queue = '{{ ref to class ei_axi4_transaction_c#(64,32)}} 
------------------------------------------------------------
------------------------------------------------------------
[Write Address Channel] 		@485 --> AWREADY Asserted
[Write Address Channel] 		@485 ARVALID & ARREADY Handshaked 
----------------------------------------------------------:---
@485 write handshake occured -> 130821562
@485 read handshake occured -> 1165602752
@485 write handshake occured -> 130821562
@485 read handshake occured -> 1165602752
##########################################################
[SLV DRV] 		@485 --> write address = 4579afc0
[SLV DRV] 		@485 --> write size = 4
[SLV DRV] 		@485 --> write len  = 4
[SLV DRV] 		 @485 --> mem[8af35f8] = add5f33a
++++++++++++++++++++++++ [ beat = 2 ] ++++++++++++++++++++++++++++++++++++++++
[SLV DRV] 			 @485 --> read burst = 0
[SLV DRV] 			 @485 --> read size = 8
[SLV DRV] 			 @485 --> read addr = 4377de29
[SLV DRV] 			 @485 --> read addr = 4377de29
[SLV DRV] 			 @485 --> read addr = 4377de29
[SLV DRV] 			 @485 --> read addr = 4377de29
[SLV DRV] 			 @485 --> read addr = 4377de29
[SLV DRV] 			 @485 --> read addr = 4377de29
[SLV DRV] 			 @485 --> read addr = 4377de29
[SLV DRV] 			 @485 --> read data= 74fb6a01a594fd00
+++++++++++++++++++++++++++++++++++++++++++++++++++++++++++++++++++++
time                 485
##########################################################
[SLV DRV] 		@495 --> write address = 4579afc0
[SLV DRV] 		@495 --> write size = 4
[SLV DRV] 		@495 --> write len  = 4
[SLV DRV] 		 @495 --> mem[8af35f8] = 9f4ddd8e
++++++++++++++++++++++++ [ beat = 3 ] ++++++++++++++++++++++++++++++++++++++++
[SLV DRV] 			 @495 --> read burst = 0
[SLV DRV] 			 @495 --> read size = 8
[SLV DRV] 			 @495 --> read addr = 4377de29
[SLV DRV] 			 @495 --> read addr = 4377de29
[SLV DRV] 			 @495 --> read addr = 4377de29
[SLV DRV] 			 @495 --> read addr = 4377de29
[SLV DRV] 			 @495 --> read addr = 4377de29
[SLV DRV] 			 @495 --> read addr = 4377de29
[SLV DRV] 			 @495 --> read addr = 4377de29
[SLV DRV] 			 @495 --> read data= 74fb6a01a594fd00
+++++++++++++++++++++++++++++++++++++++++++++++++++++++++++++++++++++
time                 495
[MST DRV] --> .... @495 WLAST Asserted
##########################################################
[SLV DRV] 		@505 --> write address = 4579afc0
[SLV DRV] 		@505 --> write size = 4
[SLV DRV] 		@505 --> write len  = 4
[SLV DRV] 		 @505 --> mem[8af35f8] = f63f811d
++++++++++++++++++++++++ [ beat = 4 ] ++++++++++++++++++++++++++++++++++++++++
[SLV DRV] 			 @505 --> read burst = 0
[SLV DRV] 			 @505 --> read size = 8
[SLV DRV] 			 @505 --> read addr = 4377de29
[SLV DRV] 			 @505 --> read addr = 4377de29
[SLV DRV] 			 @505 --> read addr = 4377de29
[SLV DRV] 			 @505 --> read addr = 4377de29
[SLV DRV] 			 @505 --> read addr = 4377de29
[SLV DRV] 			 @505 --> read addr = 4377de29
[SLV DRV] 			 @505 --> read addr = 4377de29
[SLV DRV] 			 @505 --> read data= 74fb6a01a594fd00
+++++++++++++++++++++++++++++++++++++++++++++++++++++++++++++++++++++
time                 505
[MST DRV] --> .... @505 WLAST Deasserted
++++++++++++++++++++++++ [ beat = 5 ] ++++++++++++++++++++++++++++++++++++++++
[SLV DRV] 			 @515 --> read burst = 0
[SLV DRV] 			 @515 --> read size = 8
[SLV DRV] 			 @515 --> read addr = 4377de29
[SLV DRV] 			 @515 --> read addr = 4377de29
[SLV DRV] 			 @515 --> read addr = 4377de29
[SLV DRV] 			 @515 --> read addr = 4377de29
[SLV DRV] 			 @515 --> read addr = 4377de29
[SLV DRV] 			 @515 --> read addr = 4377de29
[SLV DRV] 			 @515 --> read addr = 4377de29
[SLV DRV] 			 @515 --> read data= 74fb6a01a594fd00
+++++++++++++++++++++++++++++++++++++++++++++++++++++++++++++++++++++
time                 515
'{transaction_type:READ, addr:'h4377de29, burst:FIXED, len:'h5, size:'h3, data:'{'h74fb6a01a594fd00, 'h74fb6a01a594fd00, 'h74fb6a01a594fd00, 'h74fb6a01a594fd00, 'h74fb6a01a594fd00, 'h74fb6a01a594fd00} , rresp:'{OKAY, OKAY, OKAY, OKAY, OKAY, OKAY} , wstrb:'{}, bresp:OKAY, errors:NO_ERROR}
##########################################################
[SLV DRV] 		@525 --> write address = 7cc2dba
[SLV DRV] 		@525 --> write size = 2
[SLV DRV] 		@525 --> write len  = 0
[SLV DRV] 		 @525 --> mem[f985b7] = c3570000
time                 525
time                 525
time                 525
'{transaction_type:WRITE, addr:'h4579afc0, burst:FIXED, len:'h2, size:'h2, data:'{'h8116ebcadd5f33a, 'hc0bd670a9f4ddd8e, 'h342b933df63f811d} , rresp:'{}, wstrb:'{'hf, 'hf, 'hf} , bresp:OKAY, errors:NO_ERROR}
+=========================================================================================+
| Transaction Type :      WRITE [MONITOR FOR WRITE] @  535                                       |
+=========================================================================================+
| Sr No  |            Name |                           Type | Size |                Value |
+=========================================================================================+
|     1. |            addr |                      bit[31:0] |   32 |           1165602752 |
|     2. |           burst |       enum $unit::burst_type_e |    2 |                FIXED |
|     3. |             len |                       bit[7:0] |    8 |                    2 |
|     4. |            size |                       bit[2:0] |    3 |                    2 |
|     5. |         data[0] |                      bit[63:0] |   64 |   581367583556891450 |
|        |         data[1] |                      bit[63:0] |   64 | 13888370121200491918 |
|        |         data[2] |                      bit[63:0] |   64 |  3759260208304455965 |
|     6. |        wstrb[0] |                       bit[7:0] |    8 |                   15 |
|        |        wstrb[1] |                       bit[7:0] |    8 |                   15 |
|        |        wstrb[2] |                       bit[7:0] |    8 |                   15 |
|     7. |           bresp |         enum $unit::response_e |    2 |                 OKAY |
+=========================================================================================+
##########################################################
[SLV DRV] 		@535 --> write address = 7cc2dbc
[SLV DRV] 		@535 --> write size = 2
[SLV DRV] 		@535 --> write len  = 0
[SLV DRV] 		 @535 --> mem[f985b7] = 2117c3570000
++++++++++++++++++++++++ [ beat = 0 ] ++++++++++++++++++++++++++++++++++++++++
[SLV DRV] 			 @535 --> read burst = 0
[SLV DRV] 			 @535 --> read size = 4
[SLV DRV] 			 @535 --> read addr = 4579afc0
[SLV DRV] 			 @535 --> read addr = 4579afc0
[SLV DRV] 			 @535 --> read addr = 4579afc0
[SLV DRV] 			 @535 --> read addr = 4579afc0
[SLV DRV] 			 @535 --> read data= f63f811d
+++++++++++++++++++++++++++++++++++++++++++++++++++++++++++++++++++++
no_of_trans_monitored = 6
[GEN] ==================== Randomizing ========================
+=========================================================================================+
| Transaction Type :       READ              @  535                                       |
+=========================================================================================+
| Sr No  |            Name |                           Type | Size |                Value |
+=========================================================================================+
|     1. |            addr |                      bit[31:0] |   32 |            130821562 |
|     2. |           burst |       enum $unit::burst_type_e |    2 |                 INCR |
|     3. |             len |                       bit[7:0] |    8 |                   84 |
|     4. |            size |                       bit[2:0] |    3 |                    1 |
|     5. |         data[0] |                      bit[63:0] |   64 |                    0 |
+=========================================================================================+
|     6. |        rresp[0] |         enum $unit::response_e |    2 |                 OKAY |
+=========================================================================================+
[GEN] ==================== Randomizing ========================
+=========================================================================================+
| Transaction Type :      WRITE              @  535                                       |
+=========================================================================================+
| Sr No  |            Name |                           Type | Size |                Value |
+=========================================================================================+
|     1. |            addr |                      bit[31:0] |   32 |            821432790 |
|     2. |           burst |       enum $unit::burst_type_e |    2 |                 INCR |
|     3. |             len |                       bit[7:0] |    8 |                  255 |
|     4. |            size |                       bit[2:0] |    3 |                    1 |
|     5. |         data[0] |                      bit[63:0] |   64 | 16627356459700120686 |
|        |         data[1] |                      bit[63:0] |   64 |  3206911680097508097 |
|        |         data[2] |                      bit[63:0] |   64 |  9516224838136100869 |
|        |         data[3] |                      bit[63:0] |   64 |  7476866777384941401 |
|        |         data[4] |                      bit[63:0] |   64 |  2349311271915660311 |
|        |         data[5] |                      bit[63:0] |   64 |  9985524068517434880 |
|        |         data[6] |                      bit[63:0] |   64 |  5327917326661908720 |
|        |         data[7] |                      bit[63:0] |   64 | 11077855077930657654 |
|        |         data[8] |                      bit[63:0] |   64 |  8468176854341128083 |
|        |         data[9] |                      bit[63:0] |   64 | 18196417064187202081 |
|        |        data[10] |                      bit[63:0] |   64 | 11750725112907379901 |
|        |        data[11] |                      bit[63:0] |   64 |  4804777382705611039 |
|        |        data[12] |                      bit[63:0] |   64 |    59314892812224077 |
|        |        data[13] |                      bit[63:0] |   64 | 15337032599134687365 |
|        |        data[14] |                      bit[63:0] |   64 |  5900610841635483555 |
|        |        data[15] |                      bit[63:0] |   64 | 13546439326072363088 |
|        |        data[16] |                      bit[63:0] |   64 | 15625729788025219316 |
|        |        data[17] |                      bit[63:0] |   64 |   150892812517958517 |
|        |        data[18] |                      bit[63:0] |   64 |  2648759766064684341 |
|        |        data[19] |                      bit[63:0] |   64 |   412229937194545148 |
|        |        data[20] |                      bit[63:0] |   64 |   894037502631334164 |
|        |        data[21] |                      bit[63:0] |   64 |  9492282362582536608 |
|        |        data[22] |                      bit[63:0] |   64 |   414747797508618736 |
|        |        data[23] |                      bit[63:0] |   64 |  2053346386346883618 |
|        |        data[24] |                      bit[63:0] |   64 |  4652452603589536400 |
|        |        data[25] |                      bit[63:0] |   64 | 15468063602831266356 |
|        |        data[26] |                      bit[63:0] |   64 |  8981249626498512140 |
|        |        data[27] |                      bit[63:0] |   64 |  6154108335266973847 |
|        |        data[28] |                      bit[63:0] |   64 |  3725439630955927200 |
|        |        data[29] |                      bit[63:0] |   64 | 11339135278233687300 |
|        |        data[30] |                      bit[63:0] |   64 |  4817498571186904588 |
|        |        data[31] |                      bit[63:0] |   64 |   495461079114319741 |
|        |        data[32] |                      bit[63:0] |   64 |  9069246329906479791 |
|        |        data[33] |                      bit[63:0] |   64 |  3179839948736345098 |
|        |        data[34] |                      bit[63:0] |   64 |  7296187440292227057 |
|        |        data[35] |                      bit[63:0] |   64 | 15824128376273521741 |
|        |        data[36] |                      bit[63:0] |   64 |  1160639226025473322 |
|        |        data[37] |                      bit[63:0] |   64 |  8290720950054762217 |
|        |        data[38] |                      bit[63:0] |   64 | 18174473353865879114 |
|        |        data[39] |                      bit[63:0] |   64 | 13489979718493649597 |
|        |        data[40] |                      bit[63:0] |   64 | 16423525808799568080 |
|        |        data[41] |                      bit[63:0] |   64 |  9728138895965295781 |
|        |        data[42] |                      bit[63:0] |   64 | 11782410581646597953 |
|        |        data[43] |                      bit[63:0] |   64 | 17260071182354437327 |
|        |        data[44] |                      bit[63:0] |   64 |  6360606459774332388 |
|        |        data[45] |                      bit[63:0] |   64 | 16736393138800816531 |
|        |        data[46] |                      bit[63:0] |   64 | 14753175614405386403 |
|        |        data[47] |                      bit[63:0] |   64 | 10324320971945734875 |
|        |        data[48] |                      bit[63:0] |   64 |   922281638715180873 |
|        |        data[49] |                      bit[63:0] |   64 | 10066955927957877295 |
|        |        data[50] |                      bit[63:0] |   64 | 15642215444664096001 |
|        |        data[51] |                      bit[63:0] |   64 | 10319218581960960698 |
|        |        data[52] |                      bit[63:0] |   64 |  5776178062952547452 |
|        |        data[53] |                      bit[63:0] |   64 | 10112463004655870338 |
|        |        data[54] |                      bit[63:0] |   64 | 16634113808121139580 |
|        |        data[55] |                      bit[63:0] |   64 |  5997970075100249457 |
|        |        data[56] |                      bit[63:0] |   64 | 17797654177020591378 |
|        |        data[57] |                      bit[63:0] |   64 |  9687497620235472997 |
|        |        data[58] |                      bit[63:0] |   64 | 10858369958469178966 |
|        |        data[59] |                      bit[63:0] |   64 |  9363484848542208943 |
|        |        data[60] |                      bit[63:0] |   64 |  1638588532837164800 |
|        |        data[61] |                      bit[63:0] |   64 | 15242660417819942275 |
|        |        data[62] |                      bit[63:0] |   64 |  5767122118354134493 |
|        |        data[63] |                      bit[63:0] |   64 |   880715301222249481 |
|        |        data[64] |                      bit[63:0] |   64 |  1675725680448849182 |
|        |        data[65] |                      bit[63:0] |   64 |  5486300649620819335 |
|        |        data[66] |                      bit[63:0] |   64 |  1777548422208283563 |
|        |        data[67] |                      bit[63:0] |   64 | 13438207006019250427 |
|        |        data[68] |                      bit[63:0] |   64 |  8292386494258608840 |
|        |        data[69] |                      bit[63:0] |   64 |  4430424147735060651 |
|        |        data[70] |                      bit[63:0] |   64 | 11728749936681050774 |
|        |        data[71] |                      bit[63:0] |   64 | 13706984431211228000 |
|        |        data[72] |                      bit[63:0] |   64 |   983553186408022674 |
|        |        data[73] |                      bit[63:0] |   64 |   757307830547663508 |
|        |        data[74] |                      bit[63:0] |   64 |  6833748327736704384 |
|        |        data[75] |                      bit[63:0] |   64 | 17491119453993267209 |
|        |        data[76] |                      bit[63:0] |   64 |  7386466994140174993 |
|        |        data[77] |                      bit[63:0] |   64 | 10607283512599848240 |
|        |        data[78] |                      bit[63:0] |   64 |   718821661708672034 |
|        |        data[79] |                      bit[63:0] |   64 | 15836819127466616191 |
|        |        data[80] |                      bit[63:0] |   64 | 10118593133333121113 |
|        |        data[81] |                      bit[63:0] |   64 |  8130576354208673452 |
|        |        data[82] |                      bit[63:0] |   64 |   282898791826678415 |
|        |        data[83] |                      bit[63:0] |   64 |  9113692271098946439 |
|        |        data[84] |                      bit[63:0] |   64 |  4063576871617845993 |
|        |        data[85] |                      bit[63:0] |   64 |  5195987449478260510 |
|        |        data[86] |                      bit[63:0] |   64 |  3173674361443652418 |
|        |        data[87] |                      bit[63:0] |   64 |  1350518738369036389 |
|        |        data[88] |                      bit[63:0] |   64 | 12518450862879780400 |
|        |        data[89] |                      bit[63:0] |   64 | 18437805032389118764 |
|        |        data[90] |                      bit[63:0] |   64 | 16613091647941969145 |
|        |        data[91] |                      bit[63:0] |   64 |  1080341435884684209 |
|        |        data[92] |                      bit[63:0] |   64 |  7781842422103937697 |
|        |        data[93] |                      bit[63:0] |   64 | 16771829996100613426 |
|        |        data[94] |                      bit[63:0] |   64 | 18040208838922034563 |
|        |        data[95] |                      bit[63:0] |   64 | 17477706821822483513 |
|        |        data[96] |                      bit[63:0] |   64 |  4354903487458840974 |
|        |        data[97] |                      bit[63:0] |   64 | 12831653216941141166 |
|        |        data[98] |                      bit[63:0] |   64 |  3235830852555462616 |
|        |        data[99] |                      bit[63:0] |   64 | 15784324668630837684 |
|        |       data[100] |                      bit[63:0] |   64 |  4243827858874058326 |
|        |       data[101] |                      bit[63:0] |   64 | 14592155263565430894 |
|        |       data[102] |                      bit[63:0] |   64 | 13518671509221528729 |
|        |       data[103] |                      bit[63:0] |   64 |  4382198571887811938 |
|        |       data[104] |                      bit[63:0] |   64 | 17719883423302018997 |
|        |       data[105] |                      bit[63:0] |   64 | 10145503344404545206 |
|        |       data[106] |                      bit[63:0] |   64 | 14306245363200395387 |
|        |       data[107] |                      bit[63:0] |   64 |  5730287036191941939 |
|        |       data[108] |                      bit[63:0] |   64 | 13472231262544194940 |
|        |       data[109] |                      bit[63:0] |   64 | 16775161845685805554 |
|        |       data[110] |                      bit[63:0] |   64 | 17807714767455953200 |
|        |       data[111] |                      bit[63:0] |   64 | 13143508844921299004 |
|        |       data[112] |                      bit[63:0] |   64 |  6729401961609902302 |
|        |       data[113] |                      bit[63:0] |   64 |  5285610394822723848 |
|        |       data[114] |                      bit[63:0] |   64 | 14087737272420955852 |
|        |       data[115] |                      bit[63:0] |   64 |  6246338690594296374 |
|        |       data[116] |                      bit[63:0] |   64 | 17319684300014321176 |
|        |       data[117] |                      bit[63:0] |   64 |  9426908189027823490 |
|        |       data[118] |                      bit[63:0] |   64 | 12588738145894889824 |
|        |       data[119] |                      bit[63:0] |   64 | 10278645905119855026 |
|        |       data[120] |                      bit[63:0] |   64 | 11642271236509170849 |
|        |       data[121] |                      bit[63:0] |   64 |  5124267467960324587 |
|        |       data[122] |                      bit[63:0] |   64 |  5865873545845049476 |
|        |       data[123] |                      bit[63:0] |   64 |  4204229539840014892 |
|        |       data[124] |                      bit[63:0] |   64 |  8772105099198498035 |
|        |       data[125] |                      bit[63:0] |   64 |   700729428684691531 |
|        |       data[126] |                      bit[63:0] |   64 | 13946905941420577309 |
|        |       data[127] |                      bit[63:0] |   64 | 16713460468404839618 |
|        |       data[128] |                      bit[63:0] |   64 |  3373671618446019696 |
|        |       data[129] |                      bit[63:0] |   64 |  2700890931362610188 |
|        |       data[130] |                      bit[63:0] |   64 | 18366514652634203593 |
|        |       data[131] |                      bit[63:0] |   64 |  9222052495351095768 |
|        |       data[132] |                      bit[63:0] |   64 |  6222332916376392941 |
|        |       data[133] |                      bit[63:0] |   64 | 13192417563017371336 |
|        |       data[134] |                      bit[63:0] |   64 |  4688927452259628885 |
|        |       data[135] |                      bit[63:0] |   64 | 14747473491068686527 |
|        |       data[136] |                      bit[63:0] |   64 |  1195363153429540016 |
|        |       data[137] |                      bit[63:0] |   64 | 16052386774698968184 |
|        |       data[138] |                      bit[63:0] |   64 |  1154891799098842232 |
|        |       data[139] |                      bit[63:0] |   64 | 16145600987155143047 |
|        |       data[140] |                      bit[63:0] |   64 |  6397965387338727855 |
|        |       data[141] |                      bit[63:0] |   64 |    45905164677056747 |
|        |       data[142] |                      bit[63:0] |   64 |  2900689750670019007 |
|        |       data[143] |                      bit[63:0] |   64 | 14621874821415003266 |
|        |       data[144] |                      bit[63:0] |   64 | 15912129263273142894 |
|        |       data[145] |                      bit[63:0] |   64 |  5118976456486456679 |
|        |       data[146] |                      bit[63:0] |   64 |  3042001688352773443 |
|        |       data[147] |                      bit[63:0] |   64 |  2983888594754762239 |
|        |       data[148] |                      bit[63:0] |   64 |  5437509870272648926 |
|        |       data[149] |                      bit[63:0] |   64 | 17165890822136872489 |
|        |       data[150] |                      bit[63:0] |   64 | 17496752400984119163 |
|        |       data[151] |                      bit[63:0] |   64 | 13009341525375155003 |
|        |       data[152] |                      bit[63:0] |   64 | 10398252348847028458 |
|        |       data[153] |                      bit[63:0] |   64 | 13191149726215307894 |
|        |       data[154] |                      bit[63:0] |   64 |  9562167099977514183 |
|        |       data[155] |                      bit[63:0] |   64 | 14963840724903404283 |
|        |       data[156] |                      bit[63:0] |   64 |  3277852088018218922 |
|        |       data[157] |                      bit[63:0] |   64 | 14204744040242289335 |
|        |       data[158] |                      bit[63:0] |   64 | 16055466086402198049 |
|        |       data[159] |                      bit[63:0] |   64 | 13675979534397151312 |
|        |       data[160] |                      bit[63:0] |   64 | 17774349911587202939 |
|        |       data[161] |                      bit[63:0] |   64 |  2882390331280742856 |
|        |       data[162] |                      bit[63:0] |   64 | 17894827879176580567 |
|        |       data[163] |                      bit[63:0] |   64 | 15507116632450546345 |
|        |       data[164] |                      bit[63:0] |   64 |  2510267461226121586 |
|        |       data[165] |                      bit[63:0] |   64 |   222378314559909674 |
|        |       data[166] |                      bit[63:0] |   64 | 12235321888716869178 |
|        |       data[167] |                      bit[63:0] |   64 | 17045618000903532603 |
|        |       data[168] |                      bit[63:0] |   64 | 17782141776747954774 |
|        |       data[169] |                      bit[63:0] |   64 |  5913933470275182923 |
|        |       data[170] |                      bit[63:0] |   64 | 16943043300496392946 |
|        |       data[171] |                      bit[63:0] |   64 | 12202748248837339312 |
|        |       data[172] |                      bit[63:0] |   64 | 18016286013561041405 |
|        |       data[173] |                      bit[63:0] |   64 | 18197892046841988533 |
|        |       data[174] |                      bit[63:0] |   64 |  3125611270268481564 |
|        |       data[175] |                      bit[63:0] |   64 | 18379680245882117309 |
|        |       data[176] |                      bit[63:0] |   64 |  3749600977971108493 |
|        |       data[177] |                      bit[63:0] |   64 |  7406354772888546856 |
|        |       data[178] |                      bit[63:0] |   64 |   148861697194669744 |
|        |       data[179] |                      bit[63:0] |   64 | 14723081944691464864 |
|        |       data[180] |                      bit[63:0] |   64 |  6768342871598105421 |
|        |       data[181] |                      bit[63:0] |   64 | 16315117137601564186 |
|        |       data[182] |                      bit[63:0] |   64 |  3016688254464385642 |
|        |       data[183] |                      bit[63:0] |   64 |  2211473352134518806 |
|        |       data[184] |                      bit[63:0] |   64 |  2379224859386419922 |
|        |       data[185] |                      bit[63:0] |   64 |  4812691100365351487 |
|        |       data[186] |                      bit[63:0] |   64 |  8645107338038546109 |
|        |       data[187] |                      bit[63:0] |   64 | 18283137152840359494 |
|        |       data[188] |                      bit[63:0] |   64 | 14538350524271643287 |
|        |       data[189] |                      bit[63:0] |   64 | 13037698640197146371 |
|        |       data[190] |                      bit[63:0] |   64 |  4355281827601861199 |
|        |       data[191] |                      bit[63:0] |   64 | 13187318773319868370 |
|        |       data[192] |                      bit[63:0] |   64 |  8712021421517656792 |
|        |       data[193] |                      bit[63:0] |   64 | 11201504360650036640 |
|        |       data[194] |                      bit[63:0] |   64 |  4269621847708709057 |
|        |       data[195] |                      bit[63:0] |   64 |  1547322979832909028 |
|        |       data[196] |                      bit[63:0] |   64 | 12458032798126040648 |
|        |       data[197] |                      bit[63:0] |   64 | 13547811743586840825 |
|        |       data[198] |                      bit[63:0] |   64 |  4424108485431020272 |
|        |       data[199] |                      bit[63:0] |   64 |  6684568124030320546 |
|        |       data[200] |                      bit[63:0] |   64 | 15526571373614714532 |
|        |       data[201] |                      bit[63:0] |   64 | 15997081786867727790 |
|        |       data[202] |                      bit[63:0] |   64 | 13860032725519944895 |
|        |       data[203] |                      bit[63:0] |   64 |  4701821490429893744 |
|        |       data[204] |                      bit[63:0] |   64 |  6437171718980814730 |
|        |       data[205] |                      bit[63:0] |   64 |   846350300506288535 |
|        |       data[206] |                      bit[63:0] |   64 | 15681438419259379520 |
|        |       data[207] |                      bit[63:0] |   64 | 13899771830812019821 |
|        |       data[208] |                      bit[63:0] |   64 | 13648278679468859380 |
|        |       data[209] |                      bit[63:0] |   64 |  9589518460593533610 |
|        |       data[210] |                      bit[63:0] |   64 | 10991735383073276431 |
|        |       data[211] |                      bit[63:0] |   64 | 18231055697588905110 |
|        |       data[212] |                      bit[63:0] |   64 |  7652021740113878386 |
|        |       data[213] |                      bit[63:0] |   64 | 16151034807769025798 |
|        |       data[214] |                      bit[63:0] |   64 |  4799581475284787967 |
|        |       data[215] |                      bit[63:0] |   64 |  8397536545736000622 |
|        |       data[216] |                      bit[63:0] |   64 | 13873326213830044101 |
|        |       data[217] |                      bit[63:0] |   64 |  7195749055634493403 |
|        |       data[218] |                      bit[63:0] |   64 | 16874015876045492493 |
|        |       data[219] |                      bit[63:0] |   64 |  1023569993061979944 |
|        |       data[220] |                      bit[63:0] |   64 |  2313595148666688034 |
|        |       data[221] |                      bit[63:0] |   64 |  2698251109929569801 |
|        |       data[222] |                      bit[63:0] |   64 | 11311766254251309713 |
|        |       data[223] |                      bit[63:0] |   64 |   175696815885692118 |
|        |       data[224] |                      bit[63:0] |   64 | 15645157360990074363 |
|        |       data[225] |                      bit[63:0] |   64 |   277410622395268828 |
|        |       data[226] |                      bit[63:0] |   64 |  8675628550154965578 |
|        |       data[227] |                      bit[63:0] |   64 | 11734841598321282889 |
|        |       data[228] |                      bit[63:0] |   64 | 15080799694873219978 |
|        |       data[229] |                      bit[63:0] |   64 |  6325564938579787827 |
|        |       data[230] |                      bit[63:0] |   64 |  1273149382660887649 |
|        |       data[231] |                      bit[63:0] |   64 |  9398127128018175953 |
|        |       data[232] |                      bit[63:0] |   64 |   607222799537836037 |
|        |       data[233] |                      bit[63:0] |   64 |  4282315503499981911 |
|        |       data[234] |                      bit[63:0] |   64 | 16347734125714474569 |
|        |       data[235] |                      bit[63:0] |   64 |  2374776967324135730 |
|        |       data[236] |                      bit[63:0] |   64 |  3180407761352517493 |
|        |       data[237] |                      bit[63:0] |   64 |  3376215777131834076 |
|        |       data[238] |                      bit[63:0] |   64 | 11119160732047491714 |
|        |       data[239] |                      bit[63:0] |   64 |   514872698810152478 |
|        |       data[240] |                      bit[63:0] |   64 | 12669044092863850089 |
|        |       data[241] |                      bit[63:0] |   64 |  5170931231114088319 |
|        |       data[242] |                      bit[63:0] |   64 |  8429954908951491014 |
|        |       data[243] |                      bit[63:0] |   64 |  3205172058035056851 |
|        |       data[244] |                      bit[63:0] |   64 |  5099223645615524096 |
|        |       data[245] |                      bit[63:0] |   64 |  6791568417000044370 |
|        |       data[246] |                      bit[63:0] |   64 |  7946899881994829197 |
|        |       data[247] |                      bit[63:0] |   64 |  9826534399349039343 |
|        |       data[248] |                      bit[63:0] |   64 | 14401704415437765710 |
