Chronologic VCS simulator copyright 1991-2020
Contains Synopsys proprietary information.
Compiler version R-2020.12-SP2_Full64; Runtime version R-2020.12-SP2_Full64;  Jul  7 10:50 2022
---------------------------------------------------------------
[SLV_DRV] 		Virtual Interface has been linked.
---------------------------------------------------------------
[GEN] ==================== Randomizing ========================
+=========================================================================================+
| Transaction Type :      WRITE              @    0                                       |
+=========================================================================================+
| Sr No  |            Name |                           Type | Size |                Value |
+=========================================================================================+
|     1. |            addr |                      bit[31:0] |   32 |           2569910504 |
|     2. |           burst |       enum $unit::burst_type_e |    2 |                 INCR |
|     3. |             len |                       bit[7:0] |    8 |                  223 |
|     4. |            size |                       bit[2:0] |    3 |                    1 |
|     5. |         data[0] |                      bit[63:0] |   64 |  5876349053880598570 |
|        |         data[1] |                      bit[63:0] |   64 | 12031343114872128457 |
|        |         data[2] |                      bit[63:0] |   64 | 14728719209508980401 |
|        |         data[3] |                      bit[63:0] |   64 |  3831148048472379054 |
|        |         data[4] |                      bit[63:0] |   64 |    80458297742417989 |
|        |         data[5] |                      bit[63:0] |   64 |  7295625470018192011 |
|        |         data[6] |                      bit[63:0] |   64 |  5093347407634404034 |
|        |         data[7] |                      bit[63:0] |   64 |  3437555003968239626 |
|        |         data[8] |                      bit[63:0] |   64 |   288964614389753989 |
|        |         data[9] |                      bit[63:0] |   64 | 13382279946134098067 |
|        |        data[10] |                      bit[63:0] |   64 |  4385481413612223285 |
|        |        data[11] |                      bit[63:0] |   64 |  7024033039748602820 |
|        |        data[12] |                      bit[63:0] |   64 | 16630010505992694069 |
|        |        data[13] |                      bit[63:0] |   64 |  2433885736502615981 |
|        |        data[14] |                      bit[63:0] |   64 | 13877036551156646652 |
|        |        data[15] |                      bit[63:0] |   64 |   552156913664086123 |
|        |        data[16] |                      bit[63:0] |   64 | 15956212893686386940 |
|        |        data[17] |                      bit[63:0] |   64 |  1159775431531290966 |
|        |        data[18] |                      bit[63:0] |   64 |  4560692989685928388 |
|        |        data[19] |                      bit[63:0] |   64 | 15530494264167998728 |
|        |        data[20] |                      bit[63:0] |   64 |  1345049901051506415 |
|        |        data[21] |                      bit[63:0] |   64 |  6740407294900246572 |
|        |        data[22] |                      bit[63:0] |   64 |  5536871569200558645 |
|        |        data[23] |                      bit[63:0] |   64 | 13739112983795767340 |
|        |        data[24] |                      bit[63:0] |   64 |  1248934542148591385 |
|        |        data[25] |                      bit[63:0] |   64 |  3667764540288036278 |
|        |        data[26] |                      bit[63:0] |   64 |  9650647832681486052 |
|        |        data[27] |                      bit[63:0] |   64 |  7854807026084761069 |
|        |        data[28] |                      bit[63:0] |   64 |  7035648981483791112 |
|        |        data[29] |                      bit[63:0] |   64 | 14115241110143107992 |
|        |        data[30] |                      bit[63:0] |   64 |  3906730850357813157 |
|        |        data[31] |                      bit[63:0] |   64 |  9007109381855833937 |
|        |        data[32] |                      bit[63:0] |   64 | 12919275820237920834 |
|        |        data[33] |                      bit[63:0] |   64 |  7610818682264142171 |
|        |        data[34] |                      bit[63:0] |   64 |  6884816557949169606 |
|        |        data[35] |                      bit[63:0] |   64 | 18080649615959336367 |
|        |        data[36] |                      bit[63:0] |   64 | 11384571400079407291 |
|        |        data[37] |                      bit[63:0] |   64 |  5837743627412328165 |
|        |        data[38] |                      bit[63:0] |   64 |  8778409042356843103 |
|        |        data[39] |                      bit[63:0] |   64 |  9957031246070857277 |
|        |        data[40] |                      bit[63:0] |   64 | 15838691768925100119 |
|        |        data[41] |                      bit[63:0] |   64 |  6507621993908767002 |
|        |        data[42] |                      bit[63:0] |   64 |  6482580194545716913 |
|        |        data[43] |                      bit[63:0] |   64 | 10148074231124223368 |
|        |        data[44] |                      bit[63:0] |   64 | 11848136089357531211 |
|        |        data[45] |                      bit[63:0] |   64 | 14985333387441586290 |
|        |        data[46] |                      bit[63:0] |   64 | 12992375368573027172 |
|        |        data[47] |                      bit[63:0] |   64 | 12238068286198374979 |
|        |        data[48] |                      bit[63:0] |   64 |  3238843180707430921 |
|        |        data[49] |                      bit[63:0] |   64 | 15361262013051103912 |
|        |        data[50] |                      bit[63:0] |   64 |  5137332155388378172 |
|        |        data[51] |                      bit[63:0] |   64 | 18424621946492833674 |
|        |        data[52] |                      bit[63:0] |   64 |  4799201590014731485 |
|        |        data[53] |                      bit[63:0] |   64 |  9682270903122170946 |
|        |        data[54] |                      bit[63:0] |   64 |  3083794777542372943 |
|        |        data[55] |                      bit[63:0] |   64 |   865399365744834822 |
|        |        data[56] |                      bit[63:0] |   64 | 11139283888392982456 |
|        |        data[57] |                      bit[63:0] |   64 |  7009509399738903588 |
|        |        data[58] |                      bit[63:0] |   64 |   371219456118453332 |
|        |        data[59] |                      bit[63:0] |   64 | 15077554502394312569 |
|        |        data[60] |                      bit[63:0] |   64 | 13829129393259312931 |
|        |        data[61] |                      bit[63:0] |   64 |  1992466035126221320 |
|        |        data[62] |                      bit[63:0] |   64 |  6220812186963161701 |
|        |        data[63] |                      bit[63:0] |   64 | 10226254525719165062 |
|        |        data[64] |                      bit[63:0] |   64 |  1864799373156408314 |
|        |        data[65] |                      bit[63:0] |   64 | 14155851447357019660 |
|        |        data[66] |                      bit[63:0] |   64 |  8302495320524993445 |
|        |        data[67] |                      bit[63:0] |   64 |  7664027998288798940 |
|        |        data[68] |                      bit[63:0] |   64 | 10920098385376869526 |
|        |        data[69] |                      bit[63:0] |   64 |  2948035362548849250 |
|        |        data[70] |                      bit[63:0] |   64 |   956011486788001605 |
|        |        data[71] |                      bit[63:0] |   64 |  4803392738960701520 |
|        |        data[72] |                      bit[63:0] |   64 | 10409440768327221010 |
|        |        data[73] |                      bit[63:0] |   64 |  7603929882613243713 |
|        |        data[74] |                      bit[63:0] |   64 | 13334390560879555850 |
|        |        data[75] |                      bit[63:0] |   64 | 12561636413374075066 |
|        |        data[76] |                      bit[63:0] |   64 |  8532323756532443148 |
|        |        data[77] |                      bit[63:0] |   64 | 11820460467075392117 |
|        |        data[78] |                      bit[63:0] |   64 |  3894364756415896643 |
|        |        data[79] |                      bit[63:0] |   64 |  7577704501962228920 |
|        |        data[80] |                      bit[63:0] |   64 |  9760356110264202165 |
|        |        data[81] |                      bit[63:0] |   64 |  5108358958632839353 |
|        |        data[82] |                      bit[63:0] |   64 | 16796338550954376570 |
|        |        data[83] |                      bit[63:0] |   64 | 13869396032875235748 |
|        |        data[84] |                      bit[63:0] |   64 | 14634686297497108959 |
|        |        data[85] |                      bit[63:0] |   64 |  3921626397022782445 |
|        |        data[86] |                      bit[63:0] |   64 | 11377260720086266501 |
|        |        data[87] |                      bit[63:0] |   64 | 14443807230456104930 |
|        |        data[88] |                      bit[63:0] |   64 | 15956814461456815982 |
|        |        data[89] |                      bit[63:0] |   64 | 18294961716063055872 |
|        |        data[90] |                      bit[63:0] |   64 | 10478434867483744793 |
|        |        data[91] |                      bit[63:0] |   64 |  1161904584161842256 |
|        |        data[92] |                      bit[63:0] |   64 | 11056126037890998854 |
|        |        data[93] |                      bit[63:0] |   64 |  6016066226933187223 |
|        |        data[94] |                      bit[63:0] |   64 | 14400480922759027655 |
|        |        data[95] |                      bit[63:0] |   64 |  4886264191945761162 |
|        |        data[96] |                      bit[63:0] |   64 |   135340544229767215 |
|        |        data[97] |                      bit[63:0] |   64 | 15804763119698968761 |
|        |        data[98] |                      bit[63:0] |   64 |  7113881564762161192 |
|        |        data[99] |                      bit[63:0] |   64 | 17318438457961037825 |
|        |       data[100] |                      bit[63:0] |   64 |  1314579786746613742 |
|        |       data[101] |                      bit[63:0] |   64 | 11686095991303685031 |
|        |       data[102] |                      bit[63:0] |   64 |  7770872512072250149 |
|        |       data[103] |                      bit[63:0] |   64 | 15192416280541208014 |
|        |       data[104] |                      bit[63:0] |   64 | 15559153968859412846 |
|        |       data[105] |                      bit[63:0] |   64 | 15975218206334410559 |
|        |       data[106] |                      bit[63:0] |   64 | 11491742557703093553 |
|        |       data[107] |                      bit[63:0] |   64 |  2199851397027828703 |
|        |       data[108] |                      bit[63:0] |   64 |  8633699107552767350 |
|        |       data[109] |                      bit[63:0] |   64 |  4292502682140003508 |
|        |       data[110] |                      bit[63:0] |   64 |  9820356240465685496 |
|        |       data[111] |                      bit[63:0] |   64 | 15972896638364242212 |
|        |       data[112] |                      bit[63:0] |   64 | 11075977803279520675 |
|        |       data[113] |                      bit[63:0] |   64 |   715062103453624202 |
|        |       data[114] |                      bit[63:0] |   64 | 15877094991862457847 |
|        |       data[115] |                      bit[63:0] |   64 | 16799284381414659026 |
|        |       data[116] |                      bit[63:0] |   64 | 13562131984587182415 |
|        |       data[117] |                      bit[63:0] |   64 |  6790489383949294171 |
|        |       data[118] |                      bit[63:0] |   64 | 18412456913120049209 |
|        |       data[119] |                      bit[63:0] |   64 |  4087991790308011376 |
|        |       data[120] |                      bit[63:0] |   64 |  7041777206580121531 |
|        |       data[121] |                      bit[63:0] |   64 |  2564812697021749350 |
|        |       data[122] |                      bit[63:0] |   64 |   160353639848440523 |
|        |       data[123] |                      bit[63:0] |   64 |  6806800292984103563 |
|        |       data[124] |                      bit[63:0] |   64 |  9153932189837913437 |
|        |       data[125] |                      bit[63:0] |   64 | 13923819045944125732 |
|        |       data[126] |                      bit[63:0] |   64 | 12532955808132688765 |
|        |       data[127] |                      bit[63:0] |   64 | 14663911162567549035 |
|        |       data[128] |                      bit[63:0] |   64 | 12595610458633341243 |
|        |       data[129] |                      bit[63:0] |   64 | 10804483475187723662 |
|        |       data[130] |                      bit[63:0] |   64 |  9801389107154972729 |
|        |       data[131] |                      bit[63:0] |   64 |  1199650019338182216 |
|        |       data[132] |                      bit[63:0] |   64 | 10386892685977473338 |
|        |       data[133] |                      bit[63:0] |   64 | 14254750488350582686 |
|        |       data[134] |                      bit[63:0] |   64 | 13765459598048948935 |
|        |       data[135] |                      bit[63:0] |   64 | 17537710024740998378 |
|        |       data[136] |                      bit[63:0] |   64 | 12584900692609632245 |
|        |       data[137] |                      bit[63:0] |   64 | 12125955209004290201 |
|        |       data[138] |                      bit[63:0] |   64 |  1290596755016331623 |
|        |       data[139] |                      bit[63:0] |   64 |  7297317776911886147 |
|        |       data[140] |                      bit[63:0] |   64 |  8111972012044279855 |
|        |       data[141] |                      bit[63:0] |   64 | 13227714008623118759 |
|        |       data[142] |                      bit[63:0] |   64 |  3675351645646602020 |
|        |       data[143] |                      bit[63:0] |   64 |  1136899637276578545 |
|        |       data[144] |                      bit[63:0] |   64 |  2106299076881613828 |
|        |       data[145] |                      bit[63:0] |   64 |  7008187212479773402 |
|        |       data[146] |                      bit[63:0] |   64 | 17877983027300248211 |
|        |       data[147] |                      bit[63:0] |   64 |  2745245045406583079 |
|        |       data[148] |                      bit[63:0] |   64 | 17046421945255001347 |
|        |       data[149] |                      bit[63:0] |   64 | 10214696089486471471 |
|        |       data[150] |                      bit[63:0] |   64 |  1724964607892590969 |
|        |       data[151] |                      bit[63:0] |   64 | 12244846264840961818 |
|        |       data[152] |                      bit[63:0] |   64 | 17408626798553576854 |
|        |       data[153] |                      bit[63:0] |   64 | 17529249838851836758 |
|        |       data[154] |                      bit[63:0] |   64 | 18203404993177596681 |
|        |       data[155] |                      bit[63:0] |   64 |  1213313110321185537 |
|        |       data[156] |                      bit[63:0] |   64 | 18354759313474227336 |
|        |       data[157] |                      bit[63:0] |   64 | 17534522641149728268 |
|        |       data[158] |                      bit[63:0] |   64 | 16089180134277444526 |
|        |       data[159] |                      bit[63:0] |   64 | 17972838564389842105 |
|        |       data[160] |                      bit[63:0] |   64 |  8455869352805768842 |
|        |       data[161] |                      bit[63:0] |   64 |   433879876979156766 |
|        |       data[162] |                      bit[63:0] |   64 |  9473613849084749008 |
|        |       data[163] |                      bit[63:0] |   64 |  9838757588403578940 |
|        |       data[164] |                      bit[63:0] |   64 | 11959007986909950139 |
|        |       data[165] |                      bit[63:0] |   64 |  5259348761623695231 |
|        |       data[166] |                      bit[63:0] |   64 |  3129924988010565744 |
|        |       data[167] |                      bit[63:0] |   64 |  1865642656201094133 |
|        |       data[168] |                      bit[63:0] |   64 |  8538682356438903709 |
|        |       data[169] |                      bit[63:0] |   64 | 18083795864557275672 |
|        |       data[170] |                      bit[63:0] |   64 |  1440587600135498835 |
|        |       data[171] |                      bit[63:0] |   64 | 17118148837401361566 |
|        |       data[172] |                      bit[63:0] |   64 |  6424835488934995891 |
|        |       data[173] |                      bit[63:0] |   64 |  8542493105924629474 |
|        |       data[174] |                      bit[63:0] |   64 |  5941928102230035348 |
|        |       data[175] |                      bit[63:0] |   64 | 13885173296022665455 |
|        |       data[176] |                      bit[63:0] |   64 | 17530217556445674114 |
|        |       data[177] |                      bit[63:0] |   64 | 18231400678063056113 |
|        |       data[178] |                      bit[63:0] |   64 | 16988274323454082282 |
|        |       data[179] |                      bit[63:0] |   64 |   759818070937791347 |
|        |       data[180] |                      bit[63:0] |   64 |  7755249515094513445 |
|        |       data[181] |                      bit[63:0] |   64 |  6469950439353986874 |
|        |       data[182] |                      bit[63:0] |   64 | 15908312036821660333 |
|        |       data[183] |                      bit[63:0] |   64 |   268096556857317872 |
|        |       data[184] |                      bit[63:0] |   64 | 15468897641394423744 |
|        |       data[185] |                      bit[63:0] |   64 |  2339744962417810701 |
|        |       data[186] |                      bit[63:0] |   64 |  6958454647335848290 |
|        |       data[187] |                      bit[63:0] |   64 | 16334642803999594362 |
|        |       data[188] |                      bit[63:0] |   64 |  8259952664546759111 |
|        |       data[189] |                      bit[63:0] |   64 |   577582664634131276 |
|        |       data[190] |                      bit[63:0] |   64 |  6199562144673175361 |
|        |       data[191] |                      bit[63:0] |   64 | 11337119471694700906 |
|        |       data[192] |                      bit[63:0] |   64 | 10762235978662269490 |
|        |       data[193] |                      bit[63:0] |   64 |  5164786028551375289 |
|        |       data[194] |                      bit[63:0] |   64 |  4890892919659950949 |
|        |       data[195] |                      bit[63:0] |   64 | 16497283320934498233 |
|        |       data[196] |                      bit[63:0] |   64 |  5628259112183350287 |
|        |       data[197] |                      bit[63:0] |   64 |  1426463612164234136 |
|        |       data[198] |                      bit[63:0] |   64 | 17006772526628452163 |
|        |       data[199] |                      bit[63:0] |   64 | 13566307360186386342 |
|        |       data[200] |                      bit[63:0] |   64 |  9484494472833983946 |
|        |       data[201] |                      bit[63:0] |   64 | 14713584550981158236 |
|        |       data[202] |                      bit[63:0] |   64 | 12032752642713084437 |
|        |       data[203] |                      bit[63:0] |   64 |   558836742314711888 |
|        |       data[204] |                      bit[63:0] |   64 | 12702177878098017112 |
|        |       data[205] |                      bit[63:0] |   64 | 10528147777364088113 |
|        |       data[206] |                      bit[63:0] |   64 | 16276978635442908452 |
|        |       data[207] |                      bit[63:0] |   64 | 12224663764156261767 |
|        |       data[208] |                      bit[63:0] |   64 | 11693087763175266638 |
|        |       data[209] |                      bit[63:0] |   64 | 14860448608020839087 |
|        |       data[210] |                      bit[63:0] |   64 |  4925161993428075029 |
|        |       data[211] |                      bit[63:0] |   64 |  1230097195010273228 |
|        |       data[212] |                      bit[63:0] |   64 |  3192245050539088153 |
|        |       data[213] |                      bit[63:0] |   64 | 17913877398736602210 |
|        |       data[214] |                      bit[63:0] |   64 |  6274642968970598845 |
|        |       data[215] |                      bit[63:0] |   64 | 13067997485778255502 |
|        |       data[216] |                      bit[63:0] |   64 |  3367899359962256083 |
|        |       data[217] |                      bit[63:0] |   64 |  3058435953353339244 |
|        |       data[218] |                      bit[63:0] |   64 |  1425512401820457518 |
|        |       data[219] |                      bit[63:0] |   64 | 13000519290623565727 |
|        |       data[220] |                      bit[63:0] |   64 |  1197307227443455550 |
|        |       data[221] |                      bit[63:0] |   64 | 15735790635460967468 |
|        |       data[222] |                      bit[63:0] |   64 |  3458170465951417897 |
|        |       data[223] |                      bit[63:0] |   64 | 13723119945126445274 |
|     6. |        wstrb[0] |                       bit[7:0] |    8 |                    3 |
|        |        wstrb[1] |                       bit[7:0] |    8 |                   12 |
|        |        wstrb[2] |                       bit[7:0] |    8 |                   48 |
|        |        wstrb[3] |                       bit[7:0] |    8 |                  192 |
|        |        wstrb[4] |                       bit[7:0] |    8 |                    3 |
|        |        wstrb[5] |                       bit[7:0] |    8 |                   12 |
|        |        wstrb[6] |                       bit[7:0] |    8 |                   48 |
|        |        wstrb[7] |                       bit[7:0] |    8 |                  192 |
|        |        wstrb[8] |                       bit[7:0] |    8 |                    3 |
|        |        wstrb[9] |                       bit[7:0] |    8 |                   12 |
|        |       wstrb[10] |                       bit[7:0] |    8 |                   48 |
|        |       wstrb[11] |                       bit[7:0] |    8 |                  192 |
|        |       wstrb[12] |                       bit[7:0] |    8 |                    3 |
|        |       wstrb[13] |                       bit[7:0] |    8 |                   12 |
|        |       wstrb[14] |                       bit[7:0] |    8 |                   48 |
|        |       wstrb[15] |                       bit[7:0] |    8 |                  192 |
|        |       wstrb[16] |                       bit[7:0] |    8 |                    3 |
|        |       wstrb[17] |                       bit[7:0] |    8 |                   12 |
|        |       wstrb[18] |                       bit[7:0] |    8 |                   48 |
|        |       wstrb[19] |                       bit[7:0] |    8 |                  192 |
|        |       wstrb[20] |                       bit[7:0] |    8 |                    3 |
|        |       wstrb[21] |                       bit[7:0] |    8 |                   12 |
|        |       wstrb[22] |                       bit[7:0] |    8 |                   48 |
|        |       wstrb[23] |                       bit[7:0] |    8 |                  192 |
|        |       wstrb[24] |                       bit[7:0] |    8 |                    3 |
|        |       wstrb[25] |                       bit[7:0] |    8 |                   12 |
|        |       wstrb[26] |                       bit[7:0] |    8 |                   48 |
|        |       wstrb[27] |                       bit[7:0] |    8 |                  192 |
|        |       wstrb[28] |                       bit[7:0] |    8 |                    3 |
|        |       wstrb[29] |                       bit[7:0] |    8 |                   12 |
|        |       wstrb[30] |                       bit[7:0] |    8 |                   48 |
|        |       wstrb[31] |                       bit[7:0] |    8 |                  192 |
|        |       wstrb[32] |                       bit[7:0] |    8 |                    3 |
|        |       wstrb[33] |                       bit[7:0] |    8 |                   12 |
|        |       wstrb[34] |                       bit[7:0] |    8 |                   48 |
|        |       wstrb[35] |                       bit[7:0] |    8 |                  192 |
|        |       wstrb[36] |                       bit[7:0] |    8 |                    3 |
|        |       wstrb[37] |                       bit[7:0] |    8 |                   12 |
|        |       wstrb[38] |                       bit[7:0] |    8 |                   48 |
|        |       wstrb[39] |                       bit[7:0] |    8 |                  192 |
|        |       wstrb[40] |                       bit[7:0] |    8 |                    3 |
|        |       wstrb[41] |                       bit[7:0] |    8 |                   12 |
|        |       wstrb[42] |                       bit[7:0] |    8 |                   48 |
|        |       wstrb[43] |                       bit[7:0] |    8 |                  192 |
|        |       wstrb[44] |                       bit[7:0] |    8 |                    3 |
|        |       wstrb[45] |                       bit[7:0] |    8 |                   12 |
|        |       wstrb[46] |                       bit[7:0] |    8 |                   48 |
|        |       wstrb[47] |                       bit[7:0] |    8 |                  192 |
|        |       wstrb[48] |                       bit[7:0] |    8 |                    3 |
|        |       wstrb[49] |                       bit[7:0] |    8 |                   12 |
|        |       wstrb[50] |                       bit[7:0] |    8 |                   48 |
|        |       wstrb[51] |                       bit[7:0] |    8 |                  192 |
|        |       wstrb[52] |                       bit[7:0] |    8 |                    3 |
|        |       wstrb[53] |                       bit[7:0] |    8 |                   12 |
|        |       wstrb[54] |                       bit[7:0] |    8 |                   48 |
|        |       wstrb[55] |                       bit[7:0] |    8 |                  192 |
|        |       wstrb[56] |                       bit[7:0] |    8 |                    3 |
|        |       wstrb[57] |                       bit[7:0] |    8 |                   12 |
|        |       wstrb[58] |                       bit[7:0] |    8 |                   48 |
|        |       wstrb[59] |                       bit[7:0] |    8 |                  192 |
|        |       wstrb[60] |                       bit[7:0] |    8 |                    3 |
|        |       wstrb[61] |                       bit[7:0] |    8 |                   12 |
|        |       wstrb[62] |                       bit[7:0] |    8 |                   48 |
|        |       wstrb[63] |                       bit[7:0] |    8 |                  192 |
|        |       wstrb[64] |                       bit[7:0] |    8 |                    3 |
|        |       wstrb[65] |                       bit[7:0] |    8 |                   12 |
|        |       wstrb[66] |                       bit[7:0] |    8 |                   48 |
|        |       wstrb[67] |                       bit[7:0] |    8 |                  192 |
|        |       wstrb[68] |                       bit[7:0] |    8 |                    3 |
|        |       wstrb[69] |                       bit[7:0] |    8 |                   12 |
|        |       wstrb[70] |                       bit[7:0] |    8 |                   48 |
|        |       wstrb[71] |                       bit[7:0] |    8 |                  192 |
|        |       wstrb[72] |                       bit[7:0] |    8 |                    3 |
|        |       wstrb[73] |                       bit[7:0] |    8 |                   12 |
|        |       wstrb[74] |                       bit[7:0] |    8 |                   48 |
|        |       wstrb[75] |                       bit[7:0] |    8 |                  192 |
|        |       wstrb[76] |                       bit[7:0] |    8 |                    3 |
|        |       wstrb[77] |                       bit[7:0] |    8 |                   12 |
|        |       wstrb[78] |                       bit[7:0] |    8 |                   48 |
|        |       wstrb[79] |                       bit[7:0] |    8 |                  192 |
|        |       wstrb[80] |                       bit[7:0] |    8 |                    3 |
|        |       wstrb[81] |                       bit[7:0] |    8 |                   12 |
|        |       wstrb[82] |                       bit[7:0] |    8 |                   48 |
|        |       wstrb[83] |                       bit[7:0] |    8 |                  192 |
|        |       wstrb[84] |                       bit[7:0] |    8 |                    3 |
|        |       wstrb[85] |                       bit[7:0] |    8 |                   12 |
|        |       wstrb[86] |                       bit[7:0] |    8 |                   48 |
|        |       wstrb[87] |                       bit[7:0] |    8 |                  192 |
|        |       wstrb[88] |                       bit[7:0] |    8 |                    3 |
|        |       wstrb[89] |                       bit[7:0] |    8 |                   12 |
|        |       wstrb[90] |                       bit[7:0] |    8 |                   48 |
|        |       wstrb[91] |                       bit[7:0] |    8 |                  192 |
|        |       wstrb[92] |                       bit[7:0] |    8 |                    3 |
|        |       wstrb[93] |                       bit[7:0] |    8 |                   12 |
|        |       wstrb[94] |                       bit[7:0] |    8 |                   48 |
|        |       wstrb[95] |                       bit[7:0] |    8 |                  192 |
|        |       wstrb[96] |                       bit[7:0] |    8 |                    3 |
|        |       wstrb[97] |                       bit[7:0] |    8 |                   12 |
|        |       wstrb[98] |                       bit[7:0] |    8 |                   48 |
|        |       wstrb[99] |                       bit[7:0] |    8 |                  192 |
|        |      wstrb[100] |                       bit[7:0] |    8 |                    3 |
|        |      wstrb[101] |                       bit[7:0] |    8 |                   12 |
|        |      wstrb[102] |                       bit[7:0] |    8 |                   48 |
|        |      wstrb[103] |                       bit[7:0] |    8 |                  192 |
|        |      wstrb[104] |                       bit[7:0] |    8 |                    3 |
|        |      wstrb[105] |                       bit[7:0] |    8 |                   12 |
|        |      wstrb[106] |                       bit[7:0] |    8 |                   48 |
|        |      wstrb[107] |                       bit[7:0] |    8 |                  192 |
|        |      wstrb[108] |                       bit[7:0] |    8 |                    3 |
|        |      wstrb[109] |                       bit[7:0] |    8 |                   12 |
|        |      wstrb[110] |                       bit[7:0] |    8 |                   48 |
|        |      wstrb[111] |                       bit[7:0] |    8 |                  192 |
|        |      wstrb[112] |                       bit[7:0] |    8 |                    3 |
|        |      wstrb[113] |                       bit[7:0] |    8 |                   12 |
|        |      wstrb[114] |                       bit[7:0] |    8 |                   48 |
|        |      wstrb[115] |                       bit[7:0] |    8 |                  192 |
|        |      wstrb[116] |                       bit[7:0] |    8 |                    3 |
|        |      wstrb[117] |                       bit[7:0] |    8 |                   12 |
|        |      wstrb[118] |                       bit[7:0] |    8 |                   48 |
|        |      wstrb[119] |                       bit[7:0] |    8 |                  192 |
|        |      wstrb[120] |                       bit[7:0] |    8 |                    3 |
|        |      wstrb[121] |                       bit[7:0] |    8 |                   12 |
|        |      wstrb[122] |                       bit[7:0] |    8 |                   48 |
|        |      wstrb[123] |                       bit[7:0] |    8 |                  192 |
|        |      wstrb[124] |                       bit[7:0] |    8 |                    3 |
|        |      wstrb[125] |                       bit[7:0] |    8 |                   12 |
|        |      wstrb[126] |                       bit[7:0] |    8 |                   48 |
|        |      wstrb[127] |                       bit[7:0] |    8 |                  192 |
|        |      wstrb[128] |                       bit[7:0] |    8 |                    3 |
|        |      wstrb[129] |                       bit[7:0] |    8 |                   12 |
|        |      wstrb[130] |                       bit[7:0] |    8 |                   48 |
|        |      wstrb[131] |                       bit[7:0] |    8 |                  192 |
|        |      wstrb[132] |                       bit[7:0] |    8 |                    3 |
|        |      wstrb[133] |                       bit[7:0] |    8 |                   12 |
|        |      wstrb[134] |                       bit[7:0] |    8 |                   48 |
|        |      wstrb[135] |                       bit[7:0] |    8 |                  192 |
|        |      wstrb[136] |                       bit[7:0] |    8 |                    3 |
|        |      wstrb[137] |                       bit[7:0] |    8 |                   12 |
|        |      wstrb[138] |                       bit[7:0] |    8 |                   48 |
|        |      wstrb[139] |                       bit[7:0] |    8 |                  192 |
|        |      wstrb[140] |                       bit[7:0] |    8 |                    3 |
|        |      wstrb[141] |                       bit[7:0] |    8 |                   12 |
|        |      wstrb[142] |                       bit[7:0] |    8 |                   48 |
|        |      wstrb[143] |                       bit[7:0] |    8 |                  192 |
|        |      wstrb[144] |                       bit[7:0] |    8 |                    3 |
|        |      wstrb[145] |                       bit[7:0] |    8 |                   12 |
|        |      wstrb[146] |                       bit[7:0] |    8 |                   48 |
|        |      wstrb[147] |                       bit[7:0] |    8 |                  192 |
|        |      wstrb[148] |                       bit[7:0] |    8 |                    3 |
|        |      wstrb[149] |                       bit[7:0] |    8 |                   12 |
|        |      wstrb[150] |                       bit[7:0] |    8 |                   48 |
|        |      wstrb[151] |                       bit[7:0] |    8 |                  192 |
|        |      wstrb[152] |                       bit[7:0] |    8 |                    3 |
|        |      wstrb[153] |                       bit[7:0] |    8 |                   12 |
|        |      wstrb[154] |                       bit[7:0] |    8 |                   48 |
|        |      wstrb[155] |                       bit[7:0] |    8 |                  192 |
|        |      wstrb[156] |                       bit[7:0] |    8 |                    3 |
|        |      wstrb[157] |                       bit[7:0] |    8 |                   12 |
|        |      wstrb[158] |                       bit[7:0] |    8 |                   48 |
|        |      wstrb[159] |                       bit[7:0] |    8 |                  192 |
|        |      wstrb[160] |                       bit[7:0] |    8 |                    3 |
|        |      wstrb[161] |                       bit[7:0] |    8 |                   12 |
|        |      wstrb[162] |                       bit[7:0] |    8 |                   48 |
|        |      wstrb[163] |                       bit[7:0] |    8 |                  192 |
|        |      wstrb[164] |                       bit[7:0] |    8 |                    3 |
|        |      wstrb[165] |                       bit[7:0] |    8 |                   12 |
|        |      wstrb[166] |                       bit[7:0] |    8 |                   48 |
|        |      wstrb[167] |                       bit[7:0] |    8 |                  192 |
|        |      wstrb[168] |                       bit[7:0] |    8 |                    3 |
|        |      wstrb[169] |                       bit[7:0] |    8 |                   12 |
|        |      wstrb[170] |                       bit[7:0] |    8 |                   48 |
|        |      wstrb[171] |                       bit[7:0] |    8 |                  192 |
|        |      wstrb[172] |                       bit[7:0] |    8 |                    3 |
|        |      wstrb[173] |                       bit[7:0] |    8 |                   12 |
|        |      wstrb[174] |                       bit[7:0] |    8 |                   48 |
|        |      wstrb[175] |                       bit[7:0] |    8 |                  192 |
|        |      wstrb[176] |                       bit[7:0] |    8 |                    3 |
|        |      wstrb[177] |                       bit[7:0] |    8 |                   12 |
|        |      wstrb[178] |                       bit[7:0] |    8 |                   48 |
|        |      wstrb[179] |                       bit[7:0] |    8 |                  192 |
|        |      wstrb[180] |                       bit[7:0] |    8 |                    3 |
|        |      wstrb[181] |                       bit[7:0] |    8 |                   12 |
|        |      wstrb[182] |                       bit[7:0] |    8 |                   48 |
|        |      wstrb[183] |                       bit[7:0] |    8 |                  192 |
|        |      wstrb[184] |                       bit[7:0] |    8 |                    3 |
|        |      wstrb[185] |                       bit[7:0] |    8 |                   12 |
|        |      wstrb[186] |                       bit[7:0] |    8 |                   48 |
|        |      wstrb[187] |                       bit[7:0] |    8 |                  192 |
|        |      wstrb[188] |                       bit[7:0] |    8 |                    3 |
|        |      wstrb[189] |                       bit[7:0] |    8 |                   12 |
|        |      wstrb[190] |                       bit[7:0] |    8 |                   48 |
|        |      wstrb[191] |                       bit[7:0] |    8 |                  192 |
|        |      wstrb[192] |                       bit[7:0] |    8 |                    3 |
|        |      wstrb[193] |                       bit[7:0] |    8 |                   12 |
|        |      wstrb[194] |                       bit[7:0] |    8 |                   48 |
|        |      wstrb[195] |                       bit[7:0] |    8 |                  192 |
|        |      wstrb[196] |                       bit[7:0] |    8 |                    3 |
|        |      wstrb[197] |                       bit[7:0] |    8 |                   12 |
|        |      wstrb[198] |                       bit[7:0] |    8 |                   48 |
|        |      wstrb[199] |                       bit[7:0] |    8 |                  192 |
|        |      wstrb[200] |                       bit[7:0] |    8 |                    3 |
|        |      wstrb[201] |                       bit[7:0] |    8 |                   12 |
|        |      wstrb[202] |                       bit[7:0] |    8 |                   48 |
|        |      wstrb[203] |                       bit[7:0] |    8 |                  192 |
|        |      wstrb[204] |                       bit[7:0] |    8 |                    3 |
|        |      wstrb[205] |                       bit[7:0] |    8 |                   12 |
|        |      wstrb[206] |                       bit[7:0] |    8 |                   48 |
|        |      wstrb[207] |                       bit[7:0] |    8 |                  192 |
|        |      wstrb[208] |                       bit[7:0] |    8 |                    3 |
|        |      wstrb[209] |                       bit[7:0] |    8 |                   12 |
|        |      wstrb[210] |                       bit[7:0] |    8 |                   48 |
|        |      wstrb[211] |                       bit[7:0] |    8 |                  192 |
|        |      wstrb[212] |                       bit[7:0] |    8 |                    3 |
|        |      wstrb[213] |                       bit[7:0] |    8 |                   12 |
|        |      wstrb[214] |                       bit[7:0] |    8 |                   48 |
|        |      wstrb[215] |                       bit[7:0] |    8 |                  192 |
|        |      wstrb[216] |                       bit[7:0] |    8 |                    3 |
|        |      wstrb[217] |                       bit[7:0] |    8 |                   12 |
|        |      wstrb[218] |                       bit[7:0] |    8 |                   48 |
|        |      wstrb[219] |                       bit[7:0] |    8 |                  192 |
|        |      wstrb[220] |                       bit[7:0] |    8 |                    3 |
|        |      wstrb[221] |                       bit[7:0] |    8 |                   12 |
|        |      wstrb[222] |                       bit[7:0] |    8 |                   48 |
|        |      wstrb[223] |                       bit[7:0] |    8 |                  192 |
|     7. |           bresp |         enum $unit::response_e |    2 |                 OKAY |
+=========================================================================================+
read data queue size = 0
write data queue size = 0
write response queue size = 0
[SLV_DRV] 		@0 --> fork join disabled
-------------------------------------------------------------
################ RESET HAS BEEN ASSERTED !! #################
############### SLAVE DRIVER HAS BEEN PAUSED !! #############
-------------------------------------------------------------
################ RESET HAS BEEN DEASSERTED !! ############## 
-------------------------------------------------------------
read data queue size = 0
write data queue size = 0
write response queue size = 0
------- write_address = 992db8e8
------- write burst = 1
------- write_len = df
------- write_size = 1
------------------------------------------------------------
[Write Address Channel] 		@5 --> AWREADY Asserted
----------------------------------------------------------:---
@15 write handshake occured -> 2569910504
[Write Address Channel] 		@15 --> AWVALID & AWREADY Handshaked 
[Write Address Channel] 		@15 --> write data queue = '{{ ref to class ei_axi4_transaction_c#(64,32)}} 
------------------------------------------------------------
------------------------------------------------------------
[Write Address Channel] 		@15 --> AWREADY Asserted
@15 write handshake occured -> 2569910504
[MST DRV] --> .... @2245 WLAST Asserted
[MST DRV] --> .... @2255 WLAST Deasserted
+=========================================================================================+
| Transaction Type :      WRITE [MONITOR FOR WRITE] @ 2285                                       |
+=========================================================================================+
| Sr No  |            Name |                           Type | Size |                Value |
+=========================================================================================+
|     1. |            addr |                      bit[31:0] |   32 |           2569910504 |
|     2. |           burst |       enum $unit::burst_type_e |    2 |                 INCR |
|     3. |             len |                       bit[7:0] |    8 |                  223 |
|     4. |            size |                       bit[2:0] |    3 |                    1 |
|     5. |         data[0] |                      bit[63:0] |   64 |  5876349053880598570 |
|        |         data[1] |                      bit[63:0] |   64 | 12031343114872128457 |
|        |         data[2] |                      bit[63:0] |   64 | 14728719209508980401 |
|        |         data[3] |                      bit[63:0] |   64 |  3831148048472379054 |
|        |         data[4] |                      bit[63:0] |   64 |    80458297742417989 |
|        |         data[5] |                      bit[63:0] |   64 |  7295625470018192011 |
|        |         data[6] |                      bit[63:0] |   64 |  5093347407634404034 |
|        |         data[7] |                      bit[63:0] |   64 |  3437555003968239626 |
|        |         data[8] |                      bit[63:0] |   64 |   288964614389753989 |
|        |         data[9] |                      bit[63:0] |   64 | 13382279946134098067 |
|        |        data[10] |                      bit[63:0] |   64 |  4385481413612223285 |
|        |        data[11] |                      bit[63:0] |   64 |  7024033039748602820 |
|        |        data[12] |                      bit[63:0] |   64 | 16630010505992694069 |
|        |        data[13] |                      bit[63:0] |   64 |  2433885736502615981 |
|        |        data[14] |                      bit[63:0] |   64 | 13877036551156646652 |
|        |        data[15] |                      bit[63:0] |   64 |   552156913664086123 |
|        |        data[16] |                      bit[63:0] |   64 | 15956212893686386940 |
|        |        data[17] |                      bit[63:0] |   64 |  1159775431531290966 |
|        |        data[18] |                      bit[63:0] |   64 |  4560692989685928388 |
|        |        data[19] |                      bit[63:0] |   64 | 15530494264167998728 |
|        |        data[20] |                      bit[63:0] |   64 |  1345049901051506415 |
|        |        data[21] |                      bit[63:0] |   64 |  6740407294900246572 |
|        |        data[22] |                      bit[63:0] |   64 |  5536871569200558645 |
|        |        data[23] |                      bit[63:0] |   64 | 13739112983795767340 |
|        |        data[24] |                      bit[63:0] |   64 |  1248934542148591385 |
|        |        data[25] |                      bit[63:0] |   64 |  3667764540288036278 |
|        |        data[26] |                      bit[63:0] |   64 |  9650647832681486052 |
|        |        data[27] |                      bit[63:0] |   64 |  7854807026084761069 |
|        |        data[28] |                      bit[63:0] |   64 |  7035648981483791112 |
|        |        data[29] |                      bit[63:0] |   64 | 14115241110143107992 |
|        |        data[30] |                      bit[63:0] |   64 |  3906730850357813157 |
|        |        data[31] |                      bit[63:0] |   64 |  9007109381855833937 |
|        |        data[32] |                      bit[63:0] |   64 | 12919275820237920834 |
|        |        data[33] |                      bit[63:0] |   64 |  7610818682264142171 |
|        |        data[34] |                      bit[63:0] |   64 |  6884816557949169606 |
|        |        data[35] |                      bit[63:0] |   64 | 18080649615959336367 |
|        |        data[36] |                      bit[63:0] |   64 | 11384571400079407291 |
|        |        data[37] |                      bit[63:0] |   64 |  5837743627412328165 |
|        |        data[38] |                      bit[63:0] |   64 |  8778409042356843103 |
|        |        data[39] |                      bit[63:0] |   64 |  9957031246070857277 |
|        |        data[40] |                      bit[63:0] |   64 | 15838691768925100119 |
|        |        data[41] |                      bit[63:0] |   64 |  6507621993908767002 |
|        |        data[42] |                      bit[63:0] |   64 |  6482580194545716913 |
|        |        data[43] |                      bit[63:0] |   64 | 10148074231124223368 |
|        |        data[44] |                      bit[63:0] |   64 | 11848136089357531211 |
|        |        data[45] |                      bit[63:0] |   64 | 14985333387441586290 |
|        |        data[46] |                      bit[63:0] |   64 | 12992375368573027172 |
|        |        data[47] |                      bit[63:0] |   64 | 12238068286198374979 |
|        |        data[48] |                      bit[63:0] |   64 |  3238843180707430921 |
|        |        data[49] |                      bit[63:0] |   64 | 15361262013051103912 |
|        |        data[50] |                      bit[63:0] |   64 |  5137332155388378172 |
|        |        data[51] |                      bit[63:0] |   64 | 18424621946492833674 |
|        |        data[52] |                      bit[63:0] |   64 |  4799201590014731485 |
|        |        data[53] |                      bit[63:0] |   64 |  9682270903122170946 |
|        |        data[54] |                      bit[63:0] |   64 |  3083794777542372943 |
|        |        data[55] |                      bit[63:0] |   64 |   865399365744834822 |
|        |        data[56] |                      bit[63:0] |   64 | 11139283888392982456 |
|        |        data[57] |                      bit[63:0] |   64 |  7009509399738903588 |
|        |        data[58] |                      bit[63:0] |   64 |   371219456118453332 |
|        |        data[59] |                      bit[63:0] |   64 | 15077554502394312569 |
|        |        data[60] |                      bit[63:0] |   64 | 13829129393259312931 |
|        |        data[61] |                      bit[63:0] |   64 |  1992466035126221320 |
|        |        data[62] |                      bit[63:0] |   64 |  6220812186963161701 |
|        |        data[63] |                      bit[63:0] |   64 | 10226254525719165062 |
|        |        data[64] |                      bit[63:0] |   64 |  1864799373156408314 |
|        |        data[65] |                      bit[63:0] |   64 | 14155851447357019660 |
|        |        data[66] |                      bit[63:0] |   64 |  8302495320524993445 |
|        |        data[67] |                      bit[63:0] |   64 |  7664027998288798940 |
|        |        data[68] |                      bit[63:0] |   64 | 10920098385376869526 |
|        |        data[69] |                      bit[63:0] |   64 |  2948035362548849250 |
|        |        data[70] |                      bit[63:0] |   64 |   956011486788001605 |
|        |        data[71] |                      bit[63:0] |   64 |  4803392738960701520 |
|        |        data[72] |                      bit[63:0] |   64 | 10409440768327221010 |
|        |        data[73] |                      bit[63:0] |   64 |  7603929882613243713 |
|        |        data[74] |                      bit[63:0] |   64 | 13334390560879555850 |
|        |        data[75] |                      bit[63:0] |   64 | 12561636413374075066 |
|        |        data[76] |                      bit[63:0] |   64 |  8532323756532443148 |
|        |        data[77] |                      bit[63:0] |   64 | 11820460467075392117 |
|        |        data[78] |                      bit[63:0] |   64 |  3894364756415896643 |
|        |        data[79] |                      bit[63:0] |   64 |  7577704501962228920 |
|        |        data[80] |                      bit[63:0] |   64 |  9760356110264202165 |
|        |        data[81] |                      bit[63:0] |   64 |  5108358958632839353 |
|        |        data[82] |                      bit[63:0] |   64 | 16796338550954376570 |
|        |        data[83] |                      bit[63:0] |   64 | 13869396032875235748 |
|        |        data[84] |                      bit[63:0] |   64 | 14634686297497108959 |
|        |        data[85] |                      bit[63:0] |   64 |  3921626397022782445 |
|        |        data[86] |                      bit[63:0] |   64 | 11377260720086266501 |
|        |        data[87] |                      bit[63:0] |   64 | 14443807230456104930 |
|        |        data[88] |                      bit[63:0] |   64 | 15956814461456815982 |
|        |        data[89] |                      bit[63:0] |   64 | 18294961716063055872 |
|        |        data[90] |                      bit[63:0] |   64 | 10478434867483744793 |
|        |        data[91] |                      bit[63:0] |   64 |  1161904584161842256 |
|        |        data[92] |                      bit[63:0] |   64 | 11056126037890998854 |
|        |        data[93] |                      bit[63:0] |   64 |  6016066226933187223 |
|        |        data[94] |                      bit[63:0] |   64 | 14400480922759027655 |
|        |        data[95] |                      bit[63:0] |   64 |  4886264191945761162 |
|        |        data[96] |                      bit[63:0] |   64 |   135340544229767215 |
|        |        data[97] |                      bit[63:0] |   64 | 15804763119698968761 |
|        |        data[98] |                      bit[63:0] |   64 |  7113881564762161192 |
|        |        data[99] |                      bit[63:0] |   64 | 17318438457961037825 |
|        |       data[100] |                      bit[63:0] |   64 |  1314579786746613742 |
|        |       data[101] |                      bit[63:0] |   64 | 11686095991303685031 |
|        |       data[102] |                      bit[63:0] |   64 |  7770872512072250149 |
|        |       data[103] |                      bit[63:0] |   64 | 15192416280541208014 |
|        |       data[104] |                      bit[63:0] |   64 | 15559153968859412846 |
|        |       data[105] |                      bit[63:0] |   64 | 15975218206334410559 |
|        |       data[106] |                      bit[63:0] |   64 | 11491742557703093553 |
|        |       data[107] |                      bit[63:0] |   64 |  2199851397027828703 |
|        |       data[108] |                      bit[63:0] |   64 |  8633699107552767350 |
|        |       data[109] |                      bit[63:0] |   64 |  4292502682140003508 |
|        |       data[110] |                      bit[63:0] |   64 |  9820356240465685496 |
|        |       data[111] |                      bit[63:0] |   64 | 15972896638364242212 |
|        |       data[112] |                      bit[63:0] |   64 | 11075977803279520675 |
|        |       data[113] |                      bit[63:0] |   64 |   715062103453624202 |
|        |       data[114] |                      bit[63:0] |   64 | 15877094991862457847 |
|        |       data[115] |                      bit[63:0] |   64 | 16799284381414659026 |
|        |       data[116] |                      bit[63:0] |   64 | 13562131984587182415 |
|        |       data[117] |                      bit[63:0] |   64 |  6790489383949294171 |
|        |       data[118] |                      bit[63:0] |   64 | 18412456913120049209 |
|        |       data[119] |                      bit[63:0] |   64 |  4087991790308011376 |
|        |       data[120] |                      bit[63:0] |   64 |  7041777206580121531 |
|        |       data[121] |                      bit[63:0] |   64 |  2564812697021749350 |
|        |       data[122] |                      bit[63:0] |   64 |   160353639848440523 |
|        |       data[123] |                      bit[63:0] |   64 |  6806800292984103563 |
|        |       data[124] |                      bit[63:0] |   64 |  9153932189837913437 |
|        |       data[125] |                      bit[63:0] |   64 | 13923819045944125732 |
|        |       data[126] |                      bit[63:0] |   64 | 12532955808132688765 |
|        |       data[127] |                      bit[63:0] |   64 | 14663911162567549035 |
|        |       data[128] |                      bit[63:0] |   64 | 12595610458633341243 |
|        |       data[129] |                      bit[63:0] |   64 | 10804483475187723662 |
|        |       data[130] |                      bit[63:0] |   64 |  9801389107154972729 |
|        |       data[131] |                      bit[63:0] |   64 |  1199650019338182216 |
|        |       data[132] |                      bit[63:0] |   64 | 10386892685977473338 |
|        |       data[133] |                      bit[63:0] |   64 | 14254750488350582686 |
|        |       data[134] |                      bit[63:0] |   64 | 13765459598048948935 |
|        |       data[135] |                      bit[63:0] |   64 | 17537710024740998378 |
|        |       data[136] |                      bit[63:0] |   64 | 12584900692609632245 |
|        |       data[137] |                      bit[63:0] |   64 | 12125955209004290201 |
|        |       data[138] |                      bit[63:0] |   64 |  1290596755016331623 |
|        |       data[139] |                      bit[63:0] |   64 |  7297317776911886147 |
|        |       data[140] |                      bit[63:0] |   64 |  8111972012044279855 |
|        |       data[141] |                      bit[63:0] |   64 | 13227714008623118759 |
|        |       data[142] |                      bit[63:0] |   64 |  3675351645646602020 |
|        |       data[143] |                      bit[63:0] |   64 |  1136899637276578545 |
|        |       data[144] |                      bit[63:0] |   64 |  2106299076881613828 |
|        |       data[145] |                      bit[63:0] |   64 |  7008187212479773402 |
|        |       data[146] |                      bit[63:0] |   64 | 17877983027300248211 |
|        |       data[147] |                      bit[63:0] |   64 |  2745245045406583079 |
|        |       data[148] |                      bit[63:0] |   64 | 17046421945255001347 |
|        |       data[149] |                      bit[63:0] |   64 | 10214696089486471471 |
|        |       data[150] |                      bit[63:0] |   64 |  1724964607892590969 |
|        |       data[151] |                      bit[63:0] |   64 | 12244846264840961818 |
|        |       data[152] |                      bit[63:0] |   64 | 17408626798553576854 |
|        |       data[153] |                      bit[63:0] |   64 | 17529249838851836758 |
|        |       data[154] |                      bit[63:0] |   64 | 18203404993177596681 |
|        |       data[155] |                      bit[63:0] |   64 |  1213313110321185537 |
|        |       data[156] |                      bit[63:0] |   64 | 18354759313474227336 |
|        |       data[157] |                      bit[63:0] |   64 | 17534522641149728268 |
|        |       data[158] |                      bit[63:0] |   64 | 16089180134277444526 |
|        |       data[159] |                      bit[63:0] |   64 | 17972838564389842105 |
|        |       data[160] |                      bit[63:0] |   64 |  8455869352805768842 |
|        |       data[161] |                      bit[63:0] |   64 |   433879876979156766 |
|        |       data[162] |                      bit[63:0] |   64 |  9473613849084749008 |
|        |       data[163] |                      bit[63:0] |   64 |  9838757588403578940 |
|        |       data[164] |                      bit[63:0] |   64 | 11959007986909950139 |
|        |       data[165] |                      bit[63:0] |   64 |  5259348761623695231 |
|        |       data[166] |                      bit[63:0] |   64 |  3129924988010565744 |
|        |       data[167] |                      bit[63:0] |   64 |  1865642656201094133 |
|        |       data[168] |                      bit[63:0] |   64 |  8538682356438903709 |
|        |       data[169] |                      bit[63:0] |   64 | 18083795864557275672 |
|        |       data[170] |                      bit[63:0] |   64 |  1440587600135498835 |
|        |       data[171] |                      bit[63:0] |   64 | 17118148837401361566 |
|        |       data[172] |                      bit[63:0] |   64 |  6424835488934995891 |
|        |       data[173] |                      bit[63:0] |   64 |  8542493105924629474 |
|        |       data[174] |                      bit[63:0] |   64 |  5941928102230035348 |
|        |       data[175] |                      bit[63:0] |   64 | 13885173296022665455 |
|        |       data[176] |                      bit[63:0] |   64 | 17530217556445674114 |
|        |       data[177] |                      bit[63:0] |   64 | 18231400678063056113 |
|        |       data[178] |                      bit[63:0] |   64 | 16988274323454082282 |
|        |       data[179] |                      bit[63:0] |   64 |   759818070937791347 |
|        |       data[180] |                      bit[63:0] |   64 |  7755249515094513445 |
|        |       data[181] |                      bit[63:0] |   64 |  6469950439353986874 |
|        |       data[182] |                      bit[63:0] |   64 | 15908312036821660333 |
|        |       data[183] |                      bit[63:0] |   64 |   268096556857317872 |
|        |       data[184] |                      bit[63:0] |   64 | 15468897641394423744 |
|        |       data[185] |                      bit[63:0] |   64 |  2339744962417810701 |
|        |       data[186] |                      bit[63:0] |   64 |  6958454647335848290 |
|        |       data[187] |                      bit[63:0] |   64 | 16334642803999594362 |
|        |       data[188] |                      bit[63:0] |   64 |  8259952664546759111 |
|        |       data[189] |                      bit[63:0] |   64 |   577582664634131276 |
|        |       data[190] |                      bit[63:0] |   64 |  6199562144673175361 |
|        |       data[191] |                      bit[63:0] |   64 | 11337119471694700906 |
|        |       data[192] |                      bit[63:0] |   64 | 10762235978662269490 |
|        |       data[193] |                      bit[63:0] |   64 |  5164786028551375289 |
|        |       data[194] |                      bit[63:0] |   64 |  4890892919659950949 |
|        |       data[195] |                      bit[63:0] |   64 | 16497283320934498233 |
|        |       data[196] |                      bit[63:0] |   64 |  5628259112183350287 |
|        |       data[197] |                      bit[63:0] |   64 |  1426463612164234136 |
|        |       data[198] |                      bit[63:0] |   64 | 17006772526628452163 |
|        |       data[199] |                      bit[63:0] |   64 | 13566307360186386342 |
|        |       data[200] |                      bit[63:0] |   64 |  9484494472833983946 |
|        |       data[201] |                      bit[63:0] |   64 | 14713584550981158236 |
|        |       data[202] |                      bit[63:0] |   64 | 12032752642713084437 |
|        |       data[203] |                      bit[63:0] |   64 |   558836742314711888 |
|        |       data[204] |                      bit[63:0] |   64 | 12702177878098017112 |
|        |       data[205] |                      bit[63:0] |   64 | 10528147777364088113 |
|        |       data[206] |                      bit[63:0] |   64 | 16276978635442908452 |
|        |       data[207] |                      bit[63:0] |   64 | 12224663764156261767 |
|        |       data[208] |                      bit[63:0] |   64 | 11693087763175266638 |
|        |       data[209] |                      bit[63:0] |   64 | 14860448608020839087 |
|        |       data[210] |                      bit[63:0] |   64 |  4925161993428075029 |
|        |       data[211] |                      bit[63:0] |   64 |  1230097195010273228 |
|        |       data[212] |                      bit[63:0] |   64 |  3192245050539088153 |
|        |       data[213] |                      bit[63:0] |   64 | 17913877398736602210 |
|        |       data[214] |                      bit[63:0] |   64 |  6274642968970598845 |
|        |       data[215] |                      bit[63:0] |   64 | 13067997485778255502 |
|        |       data[216] |                      bit[63:0] |   64 |  3367899359962256083 |
|        |       data[217] |                      bit[63:0] |   64 |  3058435953353339244 |
|        |       data[218] |                      bit[63:0] |   64 |  1425512401820457518 |
|        |       data[219] |                      bit[63:0] |   64 | 13000519290623565727 |
|        |       data[220] |                      bit[63:0] |   64 |  1197307227443455550 |
|        |       data[221] |                      bit[63:0] |   64 | 15735790635460967468 |
|        |       data[222] |                      bit[63:0] |   64 |  3458170465951417897 |
|        |       data[223] |                      bit[63:0] |   64 | 13723119945126445274 |
|     6. |        wstrb[0] |                       bit[7:0] |    8 |                    3 |
|        |        wstrb[1] |                       bit[7:0] |    8 |                   12 |
|        |        wstrb[2] |                       bit[7:0] |    8 |                   48 |
|        |        wstrb[3] |                       bit[7:0] |    8 |                  192 |
|        |        wstrb[4] |                       bit[7:0] |    8 |                    3 |
|        |        wstrb[5] |                       bit[7:0] |    8 |                   12 |
|        |        wstrb[6] |                       bit[7:0] |    8 |                   48 |
|        |        wstrb[7] |                       bit[7:0] |    8 |                  192 |
|        |        wstrb[8] |                       bit[7:0] |    8 |                    3 |
|        |        wstrb[9] |                       bit[7:0] |    8 |                   12 |
|        |       wstrb[10] |                       bit[7:0] |    8 |                   48 |
|        |       wstrb[11] |                       bit[7:0] |    8 |                  192 |
|        |       wstrb[12] |                       bit[7:0] |    8 |                    3 |
|        |       wstrb[13] |                       bit[7:0] |    8 |                   12 |
|        |       wstrb[14] |                       bit[7:0] |    8 |                   48 |
|        |       wstrb[15] |                       bit[7:0] |    8 |                  192 |
|        |       wstrb[16] |                       bit[7:0] |    8 |                    3 |
|        |       wstrb[17] |                       bit[7:0] |    8 |                   12 |
|        |       wstrb[18] |                       bit[7:0] |    8 |                   48 |
|        |       wstrb[19] |                       bit[7:0] |    8 |                  192 |
|        |       wstrb[20] |                       bit[7:0] |    8 |                    3 |
|        |       wstrb[21] |                       bit[7:0] |    8 |                   12 |
|        |       wstrb[22] |                       bit[7:0] |    8 |                   48 |
|        |       wstrb[23] |                       bit[7:0] |    8 |                  192 |
|        |       wstrb[24] |                       bit[7:0] |    8 |                    3 |
|        |       wstrb[25] |                       bit[7:0] |    8 |                   12 |
|        |       wstrb[26] |                       bit[7:0] |    8 |                   48 |
|        |       wstrb[27] |                       bit[7:0] |    8 |                  192 |
|        |       wstrb[28] |                       bit[7:0] |    8 |                    3 |
|        |       wstrb[29] |                       bit[7:0] |    8 |                   12 |
|        |       wstrb[30] |                       bit[7:0] |    8 |                   48 |
|        |       wstrb[31] |                       bit[7:0] |    8 |                  192 |
|        |       wstrb[32] |                       bit[7:0] |    8 |                    3 |
|        |       wstrb[33] |                       bit[7:0] |    8 |                   12 |
|        |       wstrb[34] |                       bit[7:0] |    8 |                   48 |
|        |       wstrb[35] |                       bit[7:0] |    8 |                  192 |
|        |       wstrb[36] |                       bit[7:0] |    8 |                    3 |
|        |       wstrb[37] |                       bit[7:0] |    8 |                   12 |
|        |       wstrb[38] |                       bit[7:0] |    8 |                   48 |
|        |       wstrb[39] |                       bit[7:0] |    8 |                  192 |
|        |       wstrb[40] |                       bit[7:0] |    8 |                    3 |
|        |       wstrb[41] |                       bit[7:0] |    8 |                   12 |
|        |       wstrb[42] |                       bit[7:0] |    8 |                   48 |
|        |       wstrb[43] |                       bit[7:0] |    8 |                  192 |
|        |       wstrb[44] |                       bit[7:0] |    8 |                    3 |
|        |       wstrb[45] |                       bit[7:0] |    8 |                   12 |
|        |       wstrb[46] |                       bit[7:0] |    8 |                   48 |
|        |       wstrb[47] |                       bit[7:0] |    8 |                  192 |
|        |       wstrb[48] |                       bit[7:0] |    8 |                    3 |
|        |       wstrb[49] |                       bit[7:0] |    8 |                   12 |
|        |       wstrb[50] |                       bit[7:0] |    8 |                   48 |
|        |       wstrb[51] |                       bit[7:0] |    8 |                  192 |
|        |       wstrb[52] |                       bit[7:0] |    8 |                    3 |
|        |       wstrb[53] |                       bit[7:0] |    8 |                   12 |
|        |       wstrb[54] |                       bit[7:0] |    8 |                   48 |
|        |       wstrb[55] |                       bit[7:0] |    8 |                  192 |
|        |       wstrb[56] |                       bit[7:0] |    8 |                    3 |
|        |       wstrb[57] |                       bit[7:0] |    8 |                   12 |
|        |       wstrb[58] |                       bit[7:0] |    8 |                   48 |
|        |       wstrb[59] |                       bit[7:0] |    8 |                  192 |
|        |       wstrb[60] |                       bit[7:0] |    8 |                    3 |
|        |       wstrb[61] |                       bit[7:0] |    8 |                   12 |
|        |       wstrb[62] |                       bit[7:0] |    8 |                   48 |
|        |       wstrb[63] |                       bit[7:0] |    8 |                  192 |
|        |       wstrb[64] |                       bit[7:0] |    8 |                    3 |
|        |       wstrb[65] |                       bit[7:0] |    8 |                   12 |
|        |       wstrb[66] |                       bit[7:0] |    8 |                   48 |
|        |       wstrb[67] |                       bit[7:0] |    8 |                  192 |
|        |       wstrb[68] |                       bit[7:0] |    8 |                    3 |
|        |       wstrb[69] |                       bit[7:0] |    8 |                   12 |
|        |       wstrb[70] |                       bit[7:0] |    8 |                   48 |
|        |       wstrb[71] |                       bit[7:0] |    8 |                  192 |
|        |       wstrb[72] |                       bit[7:0] |    8 |                    3 |
|        |       wstrb[73] |                       bit[7:0] |    8 |                   12 |
|        |       wstrb[74] |                       bit[7:0] |    8 |                   48 |
|        |       wstrb[75] |                       bit[7:0] |    8 |                  192 |
|        |       wstrb[76] |                       bit[7:0] |    8 |                    3 |
|        |       wstrb[77] |                       bit[7:0] |    8 |                   12 |
|        |       wstrb[78] |                       bit[7:0] |    8 |                   48 |
|        |       wstrb[79] |                       bit[7:0] |    8 |                  192 |
|        |       wstrb[80] |                       bit[7:0] |    8 |                    3 |
|        |       wstrb[81] |                       bit[7:0] |    8 |                   12 |
|        |       wstrb[82] |                       bit[7:0] |    8 |                   48 |
|        |       wstrb[83] |                       bit[7:0] |    8 |                  192 |
|        |       wstrb[84] |                       bit[7:0] |    8 |                    3 |
|        |       wstrb[85] |                       bit[7:0] |    8 |                   12 |
|        |       wstrb[86] |                       bit[7:0] |    8 |                   48 |
|        |       wstrb[87] |                       bit[7:0] |    8 |                  192 |
|        |       wstrb[88] |                       bit[7:0] |    8 |                    3 |
|        |       wstrb[89] |                       bit[7:0] |    8 |                   12 |
|        |       wstrb[90] |                       bit[7:0] |    8 |                   48 |
|        |       wstrb[91] |                       bit[7:0] |    8 |                  192 |
|        |       wstrb[92] |                       bit[7:0] |    8 |                    3 |
|        |       wstrb[93] |                       bit[7:0] |    8 |                   12 |
|        |       wstrb[94] |                       bit[7:0] |    8 |                   48 |
|        |       wstrb[95] |                       bit[7:0] |    8 |                  192 |
|        |       wstrb[96] |                       bit[7:0] |    8 |                    3 |
|        |       wstrb[97] |                       bit[7:0] |    8 |                   12 |
|        |       wstrb[98] |                       bit[7:0] |    8 |                   48 |
|        |       wstrb[99] |                       bit[7:0] |    8 |                  192 |
|        |      wstrb[100] |                       bit[7:0] |    8 |                    3 |
|        |      wstrb[101] |                       bit[7:0] |    8 |                   12 |
|        |      wstrb[102] |                       bit[7:0] |    8 |                   48 |
|        |      wstrb[103] |                       bit[7:0] |    8 |                  192 |
|        |      wstrb[104] |                       bit[7:0] |    8 |                    3 |
|        |      wstrb[105] |                       bit[7:0] |    8 |                   12 |
|        |      wstrb[106] |                       bit[7:0] |    8 |                   48 |
|        |      wstrb[107] |                       bit[7:0] |    8 |                  192 |
|        |      wstrb[108] |                       bit[7:0] |    8 |                    3 |
|        |      wstrb[109] |                       bit[7:0] |    8 |                   12 |
|        |      wstrb[110] |                       bit[7:0] |    8 |                   48 |
|        |      wstrb[111] |                       bit[7:0] |    8 |                  192 |
|        |      wstrb[112] |                       bit[7:0] |    8 |                    3 |
|        |      wstrb[113] |                       bit[7:0] |    8 |                   12 |
|        |      wstrb[114] |                       bit[7:0] |    8 |                   48 |
|        |      wstrb[115] |                       bit[7:0] |    8 |                  192 |
|        |      wstrb[116] |                       bit[7:0] |    8 |                    3 |
|        |      wstrb[117] |                       bit[7:0] |    8 |                   12 |
|        |      wstrb[118] |                       bit[7:0] |    8 |                   48 |
|        |      wstrb[119] |                       bit[7:0] |    8 |                  192 |
|        |      wstrb[120] |                       bit[7:0] |    8 |                    3 |
|        |      wstrb[121] |                       bit[7:0] |    8 |                   12 |
|        |      wstrb[122] |                       bit[7:0] |    8 |                   48 |
|        |      wstrb[123] |                       bit[7:0] |    8 |                  192 |
|        |      wstrb[124] |                       bit[7:0] |    8 |                    3 |
|        |      wstrb[125] |                       bit[7:0] |    8 |                   12 |
|        |      wstrb[126] |                       bit[7:0] |    8 |                   48 |
|        |      wstrb[127] |                       bit[7:0] |    8 |                  192 |
|        |      wstrb[128] |                       bit[7:0] |    8 |                    3 |
|        |      wstrb[129] |                       bit[7:0] |    8 |                   12 |
|        |      wstrb[130] |                       bit[7:0] |    8 |                   48 |
|        |      wstrb[131] |                       bit[7:0] |    8 |                  192 |
|        |      wstrb[132] |                       bit[7:0] |    8 |                    3 |
|        |      wstrb[133] |                       bit[7:0] |    8 |                   12 |
|        |      wstrb[134] |                       bit[7:0] |    8 |                   48 |
|        |      wstrb[135] |                       bit[7:0] |    8 |                  192 |
|        |      wstrb[136] |                       bit[7:0] |    8 |                    3 |
|        |      wstrb[137] |                       bit[7:0] |    8 |                   12 |
|        |      wstrb[138] |                       bit[7:0] |    8 |                   48 |
|        |      wstrb[139] |                       bit[7:0] |    8 |                  192 |
|        |      wstrb[140] |                       bit[7:0] |    8 |                    3 |
|        |      wstrb[141] |                       bit[7:0] |    8 |                   12 |
|        |      wstrb[142] |                       bit[7:0] |    8 |                   48 |
|        |      wstrb[143] |                       bit[7:0] |    8 |                  192 |
|        |      wstrb[144] |                       bit[7:0] |    8 |                    3 |
|        |      wstrb[145] |                       bit[7:0] |    8 |                   12 |
|        |      wstrb[146] |                       bit[7:0] |    8 |                   48 |
|        |      wstrb[147] |                       bit[7:0] |    8 |                  192 |
|        |      wstrb[148] |                       bit[7:0] |    8 |                    3 |
|        |      wstrb[149] |                       bit[7:0] |    8 |                   12 |
|        |      wstrb[150] |                       bit[7:0] |    8 |                   48 |
|        |      wstrb[151] |                       bit[7:0] |    8 |                  192 |
|        |      wstrb[152] |                       bit[7:0] |    8 |                    3 |
|        |      wstrb[153] |                       bit[7:0] |    8 |                   12 |
|        |      wstrb[154] |                       bit[7:0] |    8 |                   48 |
|        |      wstrb[155] |                       bit[7:0] |    8 |                  192 |
|        |      wstrb[156] |                       bit[7:0] |    8 |                    3 |
|        |      wstrb[157] |                       bit[7:0] |    8 |                   12 |
|        |      wstrb[158] |                       bit[7:0] |    8 |                   48 |
|        |      wstrb[159] |                       bit[7:0] |    8 |                  192 |
|        |      wstrb[160] |                       bit[7:0] |    8 |                    3 |
|        |      wstrb[161] |                       bit[7:0] |    8 |                   12 |
|        |      wstrb[162] |                       bit[7:0] |    8 |                   48 |
|        |      wstrb[163] |                       bit[7:0] |    8 |                  192 |
|        |      wstrb[164] |                       bit[7:0] |    8 |                    3 |
|        |      wstrb[165] |                       bit[7:0] |    8 |                   12 |
|        |      wstrb[166] |                       bit[7:0] |    8 |                   48 |
|        |      wstrb[167] |                       bit[7:0] |    8 |                  192 |
|        |      wstrb[168] |                       bit[7:0] |    8 |                    3 |
|        |      wstrb[169] |                       bit[7:0] |    8 |                   12 |
|        |      wstrb[170] |                       bit[7:0] |    8 |                   48 |
|        |      wstrb[171] |                       bit[7:0] |    8 |                  192 |
|        |      wstrb[172] |                       bit[7:0] |    8 |                    3 |
|        |      wstrb[173] |                       bit[7:0] |    8 |                   12 |
|        |      wstrb[174] |                       bit[7:0] |    8 |                   48 |
|        |      wstrb[175] |                       bit[7:0] |    8 |                  192 |
|        |      wstrb[176] |                       bit[7:0] |    8 |                    3 |
|        |      wstrb[177] |                       bit[7:0] |    8 |                   12 |
|        |      wstrb[178] |                       bit[7:0] |    8 |                   48 |
|        |      wstrb[179] |                       bit[7:0] |    8 |                  192 |
|        |      wstrb[180] |                       bit[7:0] |    8 |                    3 |
|        |      wstrb[181] |                       bit[7:0] |    8 |                   12 |
|        |      wstrb[182] |                       bit[7:0] |    8 |                   48 |
|        |      wstrb[183] |                       bit[7:0] |    8 |                  192 |
|        |      wstrb[184] |                       bit[7:0] |    8 |                    3 |
|        |      wstrb[185] |                       bit[7:0] |    8 |                   12 |
|        |      wstrb[186] |                       bit[7:0] |    8 |                   48 |
|        |      wstrb[187] |                       bit[7:0] |    8 |                  192 |
|        |      wstrb[188] |                       bit[7:0] |    8 |                    3 |
|        |      wstrb[189] |                       bit[7:0] |    8 |                   12 |
|        |      wstrb[190] |                       bit[7:0] |    8 |                   48 |
|        |      wstrb[191] |                       bit[7:0] |    8 |                  192 |
|        |      wstrb[192] |                       bit[7:0] |    8 |                    3 |
|        |      wstrb[193] |                       bit[7:0] |    8 |                   12 |
|        |      wstrb[194] |                       bit[7:0] |    8 |                   48 |
|        |      wstrb[195] |                       bit[7:0] |    8 |                  192 |
|        |      wstrb[196] |                       bit[7:0] |    8 |                    3 |
|        |      wstrb[197] |                       bit[7:0] |    8 |                   12 |
|        |      wstrb[198] |                       bit[7:0] |    8 |                   48 |
|        |      wstrb[199] |                       bit[7:0] |    8 |                  192 |
|        |      wstrb[200] |                       bit[7:0] |    8 |                    3 |
|        |      wstrb[201] |                       bit[7:0] |    8 |                   12 |
|        |      wstrb[202] |                       bit[7:0] |    8 |                   48 |
|        |      wstrb[203] |                       bit[7:0] |    8 |                  192 |
|        |      wstrb[204] |                       bit[7:0] |    8 |                    3 |
|        |      wstrb[205] |                       bit[7:0] |    8 |                   12 |
|        |      wstrb[206] |                       bit[7:0] |    8 |                   48 |
|        |      wstrb[207] |                       bit[7:0] |    8 |                  192 |
|        |      wstrb[208] |                       bit[7:0] |    8 |                    3 |
|        |      wstrb[209] |                       bit[7:0] |    8 |                   12 |
|        |      wstrb[210] |                       bit[7:0] |    8 |                   48 |
|        |      wstrb[211] |                       bit[7:0] |    8 |                  192 |
|        |      wstrb[212] |                       bit[7:0] |    8 |                    3 |
|        |      wstrb[213] |                       bit[7:0] |    8 |                   12 |
|        |      wstrb[214] |                       bit[7:0] |    8 |                   48 |
|        |      wstrb[215] |                       bit[7:0] |    8 |                  192 |
|        |      wstrb[216] |                       bit[7:0] |    8 |                    3 |
|        |      wstrb[217] |                       bit[7:0] |    8 |                   12 |
|        |      wstrb[218] |                       bit[7:0] |    8 |                   48 |
|        |      wstrb[219] |                       bit[7:0] |    8 |                  192 |
|        |      wstrb[220] |                       bit[7:0] |    8 |                    3 |
|        |      wstrb[221] |                       bit[7:0] |    8 |                   12 |
|        |      wstrb[222] |                       bit[7:0] |    8 |                   48 |
|        |      wstrb[223] |                       bit[7:0] |    8 |                  192 |
|     7. |           bresp |         enum $unit::response_e |    2 |                 OKAY |
+=========================================================================================+
no_of_trans_monitored = 1
[GEN] ==================== Randomizing ========================
+=========================================================================================+
| Transaction Type :       READ              @ 2285                                       |
+=========================================================================================+
| Sr No  |            Name |                           Type | Size |                Value |
+=========================================================================================+
|     1. |            addr |                      bit[31:0] |   32 |           2569910504 |
|     2. |           burst |       enum $unit::burst_type_e |    2 |                 INCR |
|     3. |             len |                       bit[7:0] |    8 |                  223 |
|     4. |            size |                       bit[2:0] |    3 |                    1 |
|     5. |         data[0] |                      bit[63:0] |   64 |                    0 |
+=========================================================================================+
|     6. |        rresp[0] |         enum $unit::response_e |    2 |                 OKAY |
+=========================================================================================+
@2305 read handshake occured -> 2569910504
[Write Address Channel] 		@2305 ARVALID & ARREADY Handshaked 
----------------------------------------------------------:---
@2305 read handshake occured -> 2569910504
time                2305
time                2315
time                2325
time                2335
time                2345
time                2355
time                2365
time                2375
time                2385
time                2395
time                2405
time                2415
time                2425
time                2435
time                2445
time                2455
time                2465
time                2475
time                2485
time                2495
time                2505
time                2515
time                2525
time                2535
time                2545
time                2555
time                2565
time                2575
time                2585
time                2595
time                2605
time                2615
time                2625
time                2635
time                2645
time                2655
time                2665
time                2675
time                2685
time                2695
time                2705
time                2715
time                2725
time                2735
time                2745
time                2755
time                2765
time                2775
time                2785
time                2795
time                2805
time                2815
time                2825
time                2835
time                2845
time                2855
time                2865
time                2875
time                2885
time                2895
time                2905
time                2915
time                2925
time                2935
time                2945
time                2955
time                2965
time                2975
time                2985
time                2995
time                3005
time                3015
time                3025
time                3035
time                3045
time                3055
time                3065
time                3075
time                3085
time                3095
time                3105
time                3115
time                3125
time                3135
time                3145
time                3155
time                3165
time                3175
time                3185
time                3195
time                3205
time                3215
time                3225
time                3235
time                3245
time                3255
time                3265
time                3275
time                3285
time                3295
time                3305
time                3315
time                3325
time                3335
time                3345
time                3355
time                3365
time                3375
time                3385
time                3395
time                3405
time                3415
time                3425
time                3435
time                3445
time                3455
time                3465
time                3475
time                3485
time                3495
time                3505
time                3515
time                3525
time                3535
time                3545
time                3555
time                3565
time                3575
time                3585
time                3595
time                3605
time                3615
time                3625
time                3635
time                3645
time                3655
time                3665
time                3675
time                3685
time                3695
time                3705
time                3715
time                3725
time                3735
time                3745
time                3755
time                3765
time                3775
time                3785
time                3795
time                3805
time                3815
time                3825
time                3835
time                3845
time                3855
time                3865
time                3875
time                3885
time                3895
time                3905
time                3915
time                3925
time                3935
time                3945
time                3955
time                3965
time                3975
time                3985
time                3995
time                4005
time                4015
time                4025
time                4035
time                4045
time                4055
time                4065
time                4075
time                4085
time                4095
time                4105
time                4115
time                4125
time                4135
time                4145
time                4155
time                4165
time                4175
time                4185
time                4195
time                4205
time                4215
time                4225
time                4235
time                4245
time                4255
time                4265
time                4275
time                4285
time                4295
time                4305
time                4315
time                4325
time                4335
time                4345
time                4355
time                4365
time                4375
time                4385
time                4395
time                4405
time                4415
time                4425
time                4435
time                4445
time                4455
time                4465
time                4475
time                4485
time                4495
time                4505
time                4515
time                4525
time                4535
time                4545
time                4545
reference_model address -=-==-=-=-=-=-=-=-=-=-=-=-=-=-=--=-=-=-=-= > = 2569910504
4kb_boundary if confdition dnskjfhbvhjAVDOKFDLISAGIDGSAISKFKUDSFKADS
reference_model address -=-==-=-=-=-=-=-=-=-=-=-=-=-=-=--=-=-=-=-= > = 2569910504
4kb_boundary if confdition dnskjfhbvhjAVDOKFDLISAGIDGSAISKFKUDSFKADS
reference_model address -=-==-=-=-=-=-=-=-=-=-=-=-=-=-=--=-=-=-=-= > = 2569910504
4kb_boundary if confdition dnskjfhbvhjAVDOKFDLISAGIDGSAISKFKUDSFKADS
reference_model address -=-==-=-=-=-=-=-=-=-=-=-=-=-=-=--=-=-=-=-= > = 2569910504
4kb_boundary if confdition dnskjfhbvhjAVDOKFDLISAGIDGSAISKFKUDSFKADS
reference_model address -=-==-=-=-=-=-=-=-=-=-=-=-=-=-=--=-=-=-=-= > = 2569910504
4kb_boundary if confdition dnskjfhbvhjAVDOKFDLISAGIDGSAISKFKUDSFKADS
reference_model address -=-==-=-=-=-=-=-=-=-=-=-=-=-=-=--=-=-=-=-= > = 2569910504
4kb_boundary if confdition dnskjfhbvhjAVDOKFDLISAGIDGSAISKFKUDSFKADS
reference_model address -=-==-=-=-=-=-=-=-=-=-=-=-=-=-=--=-=-=-=-= > = 2569910504
4kb_boundary if confdition dnskjfhbvhjAVDOKFDLISAGIDGSAISKFKUDSFKADS
reference_model address -=-==-=-=-=-=-=-=-=-=-=-=-=-=-=--=-=-=-=-= > = 2569910504
4kb_boundary if confdition dnskjfhbvhjAVDOKFDLISAGIDGSAISKFKUDSFKADS
reference_model address -=-==-=-=-=-=-=-=-=-=-=-=-=-=-=--=-=-=-=-= > = 2569910504
4kb_boundary if confdition dnskjfhbvhjAVDOKFDLISAGIDGSAISKFKUDSFKADS
reference_model address -=-==-=-=-=-=-=-=-=-=-=-=-=-=-=--=-=-=-=-= > = 2569910504
4kb_boundary if confdition dnskjfhbvhjAVDOKFDLISAGIDGSAISKFKUDSFKADS
reference_model address -=-==-=-=-=-=-=-=-=-=-=-=-=-=-=--=-=-=-=-= > = 2569910504
4kb_boundary if confdition dnskjfhbvhjAVDOKFDLISAGIDGSAISKFKUDSFKADS
reference_model address -=-==-=-=-=-=-=-=-=-=-=-=-=-=-=--=-=-=-=-= > = 2569910504
4kb_boundary if confdition dnskjfhbvhjAVDOKFDLISAGIDGSAISKFKUDSFKADS
reference_model address -=-==-=-=-=-=-=-=-=-=-=-=-=-=-=--=-=-=-=-= > = 2569910504
4kb_boundary if confdition dnskjfhbvhjAVDOKFDLISAGIDGSAISKFKUDSFKADS
reference_model address -=-==-=-=-=-=-=-=-=-=-=-=-=-=-=--=-=-=-=-= > = 2569910504
4kb_boundary if confdition dnskjfhbvhjAVDOKFDLISAGIDGSAISKFKUDSFKADS
reference_model address -=-==-=-=-=-=-=-=-=-=-=-=-=-=-=--=-=-=-=-= > = 2569910504
4kb_boundary if confdition dnskjfhbvhjAVDOKFDLISAGIDGSAISKFKUDSFKADS
reference_model address -=-==-=-=-=-=-=-=-=-=-=-=-=-=-=--=-=-=-=-= > = 2569910504
4kb_boundary if confdition dnskjfhbvhjAVDOKFDLISAGIDGSAISKFKUDSFKADS
reference_model address -=-==-=-=-=-=-=-=-=-=-=-=-=-=-=--=-=-=-=-= > = 2569910504
4kb_boundary if confdition dnskjfhbvhjAVDOKFDLISAGIDGSAISKFKUDSFKADS
reference_model address -=-==-=-=-=-=-=-=-=-=-=-=-=-=-=--=-=-=-=-= > = 2569910504
4kb_boundary if confdition dnskjfhbvhjAVDOKFDLISAGIDGSAISKFKUDSFKADS
reference_model address -=-==-=-=-=-=-=-=-=-=-=-=-=-=-=--=-=-=-=-= > = 2569910504
4kb_boundary if confdition dnskjfhbvhjAVDOKFDLISAGIDGSAISKFKUDSFKADS
reference_model address -=-==-=-=-=-=-=-=-=-=-=-=-=-=-=--=-=-=-=-= > = 2569910504
4kb_boundary if confdition dnskjfhbvhjAVDOKFDLISAGIDGSAISKFKUDSFKADS
reference_model address -=-==-=-=-=-=-=-=-=-=-=-=-=-=-=--=-=-=-=-= > = 2569910504
4kb_boundary if confdition dnskjfhbvhjAVDOKFDLISAGIDGSAISKFKUDSFKADS
reference_model address -=-==-=-=-=-=-=-=-=-=-=-=-=-=-=--=-=-=-=-= > = 2569910504
4kb_boundary if confdition dnskjfhbvhjAVDOKFDLISAGIDGSAISKFKUDSFKADS
reference_model address -=-==-=-=-=-=-=-=-=-=-=-=-=-=-=--=-=-=-=-= > = 2569910504
4kb_boundary if confdition dnskjfhbvhjAVDOKFDLISAGIDGSAISKFKUDSFKADS
reference_model address -=-==-=-=-=-=-=-=-=-=-=-=-=-=-=--=-=-=-=-= > = 2569910504
4kb_boundary if confdition dnskjfhbvhjAVDOKFDLISAGIDGSAISKFKUDSFKADS
reference_model address -=-==-=-=-=-=-=-=-=-=-=-=-=-=-=--=-=-=-=-= > = 2569910504
4kb_boundary if confdition dnskjfhbvhjAVDOKFDLISAGIDGSAISKFKUDSFKADS
reference_model address -=-==-=-=-=-=-=-=-=-=-=-=-=-=-=--=-=-=-=-= > = 2569910504
4kb_boundary if confdition dnskjfhbvhjAVDOKFDLISAGIDGSAISKFKUDSFKADS
reference_model address -=-==-=-=-=-=-=-=-=-=-=-=-=-=-=--=-=-=-=-= > = 2569910504
4kb_boundary if confdition dnskjfhbvhjAVDOKFDLISAGIDGSAISKFKUDSFKADS
reference_model address -=-==-=-=-=-=-=-=-=-=-=-=-=-=-=--=-=-=-=-= > = 2569910504
4kb_boundary if confdition dnskjfhbvhjAVDOKFDLISAGIDGSAISKFKUDSFKADS
reference_model address -=-==-=-=-=-=-=-=-=-=-=-=-=-=-=--=-=-=-=-= > = 2569910504
4kb_boundary if confdition dnskjfhbvhjAVDOKFDLISAGIDGSAISKFKUDSFKADS
reference_model address -=-==-=-=-=-=-=-=-=-=-=-=-=-=-=--=-=-=-=-= > = 2569910504
4kb_boundary if confdition dnskjfhbvhjAVDOKFDLISAGIDGSAISKFKUDSFKADS
reference_model address -=-==-=-=-=-=-=-=-=-=-=-=-=-=-=--=-=-=-=-= > = 2569910504
4kb_boundary if confdition dnskjfhbvhjAVDOKFDLISAGIDGSAISKFKUDSFKADS
reference_model address -=-==-=-=-=-=-=-=-=-=-=-=-=-=-=--=-=-=-=-= > = 2569910504
4kb_boundary if confdition dnskjfhbvhjAVDOKFDLISAGIDGSAISKFKUDSFKADS
reference_model address -=-==-=-=-=-=-=-=-=-=-=-=-=-=-=--=-=-=-=-= > = 2569910504
4kb_boundary if confdition dnskjfhbvhjAVDOKFDLISAGIDGSAISKFKUDSFKADS
reference_model address -=-==-=-=-=-=-=-=-=-=-=-=-=-=-=--=-=-=-=-= > = 2569910504
4kb_boundary if confdition dnskjfhbvhjAVDOKFDLISAGIDGSAISKFKUDSFKADS
reference_model address -=-==-=-=-=-=-=-=-=-=-=-=-=-=-=--=-=-=-=-= > = 2569910504
4kb_boundary if confdition dnskjfhbvhjAVDOKFDLISAGIDGSAISKFKUDSFKADS
reference_model address -=-==-=-=-=-=-=-=-=-=-=-=-=-=-=--=-=-=-=-= > = 2569910504
4kb_boundary if confdition dnskjfhbvhjAVDOKFDLISAGIDGSAISKFKUDSFKADS
reference_model address -=-==-=-=-=-=-=-=-=-=-=-=-=-=-=--=-=-=-=-= > = 2569910504
4kb_boundary if confdition dnskjfhbvhjAVDOKFDLISAGIDGSAISKFKUDSFKADS
reference_model address -=-==-=-=-=-=-=-=-=-=-=-=-=-=-=--=-=-=-=-= > = 2569910504
4kb_boundary if confdition dnskjfhbvhjAVDOKFDLISAGIDGSAISKFKUDSFKADS
reference_model address -=-==-=-=-=-=-=-=-=-=-=-=-=-=-=--=-=-=-=-= > = 2569910504
4kb_boundary if confdition dnskjfhbvhjAVDOKFDLISAGIDGSAISKFKUDSFKADS
reference_model address -=-==-=-=-=-=-=-=-=-=-=-=-=-=-=--=-=-=-=-= > = 2569910504
4kb_boundary if confdition dnskjfhbvhjAVDOKFDLISAGIDGSAISKFKUDSFKADS
reference_model address -=-==-=-=-=-=-=-=-=-=-=-=-=-=-=--=-=-=-=-= > = 2569910504
4kb_boundary if confdition dnskjfhbvhjAVDOKFDLISAGIDGSAISKFKUDSFKADS
reference_model address -=-==-=-=-=-=-=-=-=-=-=-=-=-=-=--=-=-=-=-= > = 2569910504
4kb_boundary if confdition dnskjfhbvhjAVDOKFDLISAGIDGSAISKFKUDSFKADS
reference_model address -=-==-=-=-=-=-=-=-=-=-=-=-=-=-=--=-=-=-=-= > = 2569910504
4kb_boundary if confdition dnskjfhbvhjAVDOKFDLISAGIDGSAISKFKUDSFKADS
reference_model address -=-==-=-=-=-=-=-=-=-=-=-=-=-=-=--=-=-=-=-= > = 2569910504
