Chronologic VCS simulator copyright 1991-2020
Contains Synopsys proprietary information.
<<<<<<< HEAD
Compiler version R-2020.12-SP2_Full64; Runtime version R-2020.12-SP2_Full64;  Jul 12 10:48 2022
=======
<<<<<<< HEAD
Compiler version R-2020.12-SP2_Full64; Runtime version R-2020.12-SP2_Full64;  Jul  7 11:45 2022
=======
Compiler version R-2020.12-SP2_Full64; Runtime version R-2020.12-SP2_Full64;  Jul  7 15:59 2022
>>>>>>> 82bef44bc9897a347b797b7b476cee882498cc31
>>>>>>> c11166c6dcc600c4b6a7217a8be3bda970fcf681
---------------------------------------------------------------
[SLV_DRV] 		Virtual Interface has been linked.
---------------------------------------------------------------
+=========================================================================================+
| Transaction Type :      WRITE  [GENERATOR] @    0                                       |
+=========================================================================================+
| Sr No  |            Name |                           Type | Size |                Value |
+=========================================================================================+
<<<<<<< HEAD
|     1. |            addr |                      bit[31:0] |   32 |           3752521740 |
=======
<<<<<<< HEAD
|     1. |            addr |                      bit[31:0] |   32 |           1707599077 |
|     2. |           burst |       enum $unit::burst_type_e |    2 |                 INCR |
|     3. |             len |                       bit[7:0] |    8 |                   60 |
|     4. |            size |                       bit[2:0] |    3 |                    1 |
|     5. |         data[0] |                      bit[63:0] |   64 |  2064701248262552264 |
|        |         data[1] |                      bit[63:0] |   64 | 14946791503655411466 |
|        |         data[2] |                      bit[63:0] |   64 |  8179823655543466194 |
|        |         data[3] |                      bit[63:0] |   64 |  8982832903279783320 |
|        |         data[4] |                      bit[63:0] |   64 |  7043497981439899215 |
|        |         data[5] |                      bit[63:0] |   64 | 13731916183500350100 |
|        |         data[6] |                      bit[63:0] |   64 |  7972315797286207137 |
|        |         data[7] |                      bit[63:0] |   64 | 18339796134995596273 |
|        |         data[8] |                      bit[63:0] |   64 |  4828412993615851332 |
|        |         data[9] |                      bit[63:0] |   64 |  8592653879347210909 |
|        |        data[10] |                      bit[63:0] |   64 | 13554397291679810110 |
|        |        data[11] |                      bit[63:0] |   64 | 13363854409309165492 |
|        |        data[12] |                      bit[63:0] |   64 | 10185082606515494098 |
|        |        data[13] |                      bit[63:0] |   64 |  4229145394549330486 |
|        |        data[14] |                      bit[63:0] |   64 |  4914987842652273988 |
|        |        data[15] |                      bit[63:0] |   64 | 11012238269332620239 |
|        |        data[16] |                      bit[63:0] |   64 |  4266224235456513295 |
|        |        data[17] |                      bit[63:0] |   64 |  8175524452950026721 |
|        |        data[18] |                      bit[63:0] |   64 |  8442586332321142726 |
|        |        data[19] |                      bit[63:0] |   64 | 10743852902292487263 |
|        |        data[20] |                      bit[63:0] |   64 | 10062159701727118169 |
|        |        data[21] |                      bit[63:0] |   64 | 16700947402170778216 |
|        |        data[22] |                      bit[63:0] |   64 | 17530662308770395657 |
|        |        data[23] |                      bit[63:0] |   64 |   965843687493850386 |
|        |        data[24] |                      bit[63:0] |   64 | 13947495018564539968 |
|        |        data[25] |                      bit[63:0] |   64 | 14528793004639668123 |
|        |        data[26] |                      bit[63:0] |   64 |  9152139600646746392 |
|        |        data[27] |                      bit[63:0] |   64 | 17326759171367535144 |
|        |        data[28] |                      bit[63:0] |   64 |  1287001571137122698 |
|        |        data[29] |                      bit[63:0] |   64 | 11326558374577401564 |
|        |        data[30] |                      bit[63:0] |   64 |  4279645587507753114 |
|        |        data[31] |                      bit[63:0] |   64 | 10786729193711125966 |
|        |        data[32] |                      bit[63:0] |   64 | 11935361381297440559 |
|        |        data[33] |                      bit[63:0] |   64 |  8901125013208654964 |
|        |        data[34] |                      bit[63:0] |   64 |  1296840387431853131 |
|        |        data[35] |                      bit[63:0] |   64 |  3438442354242426724 |
|        |        data[36] |                      bit[63:0] |   64 |  2215996327499584927 |
|        |        data[37] |                      bit[63:0] |   64 | 14381634376870801240 |
|        |        data[38] |                      bit[63:0] |   64 |  3964458689871398760 |
|        |        data[39] |                      bit[63:0] |   64 |  5951372837190812437 |
|        |        data[40] |                      bit[63:0] |   64 |  1620065046270754112 |
|        |        data[41] |                      bit[63:0] |   64 |  8025945075981720066 |
|        |        data[42] |                      bit[63:0] |   64 | 11904287147797971879 |
|        |        data[43] |                      bit[63:0] |   64 |  8335267060283990126 |
|        |        data[44] |                      bit[63:0] |   64 | 10888166950784273187 |
|        |        data[45] |                      bit[63:0] |   64 |   667586928428638131 |
|        |        data[46] |                      bit[63:0] |   64 | 15369308525990132183 |
|        |        data[47] |                      bit[63:0] |   64 | 11267877851853382328 |
|        |        data[48] |                      bit[63:0] |   64 | 14817621990652091067 |
|        |        data[49] |                      bit[63:0] |   64 | 15471958705157457761 |
|        |        data[50] |                      bit[63:0] |   64 | 17939053010995615728 |
|        |        data[51] |                      bit[63:0] |   64 |  5314646700168735158 |
|        |        data[52] |                      bit[63:0] |   64 |  5840200475440430343 |
|        |        data[53] |                      bit[63:0] |   64 |  6789655795505090832 |
|        |        data[54] |                      bit[63:0] |   64 | 15540923388496934050 |
|        |        data[55] |                      bit[63:0] |   64 |  9951853354707334914 |
|        |        data[56] |                      bit[63:0] |   64 | 15569676708807254794 |
|        |        data[57] |                      bit[63:0] |   64 | 13757198338886871874 |
|        |        data[58] |                      bit[63:0] |   64 |  7191472860844920613 |
|        |        data[59] |                      bit[63:0] |   64 | 15649208270123447671 |
|        |        data[60] |                      bit[63:0] |   64 | 10808239045723419771 |
|     6. |        wstrb[0] |                       bit[7:0] |    8 |                   32 |
|        |        wstrb[1] |                       bit[7:0] |    8 |                  192 |
|        |        wstrb[2] |                       bit[7:0] |    8 |                    3 |
|        |        wstrb[3] |                       bit[7:0] |    8 |                   12 |
|        |        wstrb[4] |                       bit[7:0] |    8 |                   48 |
|        |        wstrb[5] |                       bit[7:0] |    8 |                  192 |
|        |        wstrb[6] |                       bit[7:0] |    8 |                    3 |
|        |        wstrb[7] |                       bit[7:0] |    8 |                   12 |
|        |        wstrb[8] |                       bit[7:0] |    8 |                   48 |
|        |        wstrb[9] |                       bit[7:0] |    8 |                  192 |
|        |       wstrb[10] |                       bit[7:0] |    8 |                    3 |
|        |       wstrb[11] |                       bit[7:0] |    8 |                   12 |
|        |       wstrb[12] |                       bit[7:0] |    8 |                   48 |
|        |       wstrb[13] |                       bit[7:0] |    8 |                  192 |
|        |       wstrb[14] |                       bit[7:0] |    8 |                    3 |
|        |       wstrb[15] |                       bit[7:0] |    8 |                   12 |
|        |       wstrb[16] |                       bit[7:0] |    8 |                   48 |
|        |       wstrb[17] |                       bit[7:0] |    8 |                  192 |
|        |       wstrb[18] |                       bit[7:0] |    8 |                    3 |
|        |       wstrb[19] |                       bit[7:0] |    8 |                   12 |
|        |       wstrb[20] |                       bit[7:0] |    8 |                   48 |
|        |       wstrb[21] |                       bit[7:0] |    8 |                  192 |
|        |       wstrb[22] |                       bit[7:0] |    8 |                    3 |
|        |       wstrb[23] |                       bit[7:0] |    8 |                   12 |
|        |       wstrb[24] |                       bit[7:0] |    8 |                   48 |
|        |       wstrb[25] |                       bit[7:0] |    8 |                  192 |
|        |       wstrb[26] |                       bit[7:0] |    8 |                    3 |
|        |       wstrb[27] |                       bit[7:0] |    8 |                   12 |
|        |       wstrb[28] |                       bit[7:0] |    8 |                   48 |
|        |       wstrb[29] |                       bit[7:0] |    8 |                  192 |
|        |       wstrb[30] |                       bit[7:0] |    8 |                    3 |
|        |       wstrb[31] |                       bit[7:0] |    8 |                   12 |
|        |       wstrb[32] |                       bit[7:0] |    8 |                   48 |
|        |       wstrb[33] |                       bit[7:0] |    8 |                  192 |
|        |       wstrb[34] |                       bit[7:0] |    8 |                    3 |
|        |       wstrb[35] |                       bit[7:0] |    8 |                   12 |
|        |       wstrb[36] |                       bit[7:0] |    8 |                   48 |
|        |       wstrb[37] |                       bit[7:0] |    8 |                  192 |
|        |       wstrb[38] |                       bit[7:0] |    8 |                    3 |
|        |       wstrb[39] |                       bit[7:0] |    8 |                   12 |
|        |       wstrb[40] |                       bit[7:0] |    8 |                   48 |
|        |       wstrb[41] |                       bit[7:0] |    8 |                  192 |
|        |       wstrb[42] |                       bit[7:0] |    8 |                    3 |
|        |       wstrb[43] |                       bit[7:0] |    8 |                   12 |
|        |       wstrb[44] |                       bit[7:0] |    8 |                   48 |
|        |       wstrb[45] |                       bit[7:0] |    8 |                  192 |
|        |       wstrb[46] |                       bit[7:0] |    8 |                    3 |
|        |       wstrb[47] |                       bit[7:0] |    8 |                   12 |
|        |       wstrb[48] |                       bit[7:0] |    8 |                   48 |
|        |       wstrb[49] |                       bit[7:0] |    8 |                  192 |
|        |       wstrb[50] |                       bit[7:0] |    8 |                    3 |
|        |       wstrb[51] |                       bit[7:0] |    8 |                   12 |
|        |       wstrb[52] |                       bit[7:0] |    8 |                   48 |
|        |       wstrb[53] |                       bit[7:0] |    8 |                  192 |
|        |       wstrb[54] |                       bit[7:0] |    8 |                    3 |
|        |       wstrb[55] |                       bit[7:0] |    8 |                   12 |
|        |       wstrb[56] |                       bit[7:0] |    8 |                   48 |
|        |       wstrb[57] |                       bit[7:0] |    8 |                  192 |
|        |       wstrb[58] |                       bit[7:0] |    8 |                    3 |
|        |       wstrb[59] |                       bit[7:0] |    8 |                   12 |
|        |       wstrb[60] |                       bit[7:0] |    8 |                   48 |
|     7. |           bresp |         enum $unit::response_e |    2 |                 OKAY |
+=========================================================================================+
read data queue size = 0
write data queue size = 0
write response queue size = 0
=======
|     1. |            addr |                      bit[31:0] |   32 |            695683053 |
>>>>>>> c11166c6dcc600c4b6a7217a8be3bda970fcf681
|     2. |           burst |       enum $unit::burst_type_e |    2 |                 INCR |
|     3. |             len |                       bit[7:0] |    8 |                   59 |
|     4. |            size |                       bit[2:0] |    3 |                    2 |
|     5. |         data[0] |                      bit[63:0] |   64 |  5663618189114700409 |
|        |         data[1] |                      bit[63:0] |   64 |   958869203649472895 |
|        |         data[2] |                      bit[63:0] |   64 | 16187322101798546758 |
|        |         data[3] |                      bit[63:0] |   64 |  4678559303570662293 |
|        |         data[4] |                      bit[63:0] |   64 |  7021212999338167461 |
|        |         data[5] |                      bit[63:0] |   64 | 17326058638080372915 |
|        |         data[6] |                      bit[63:0] |   64 |  9928443620645728309 |
|        |         data[7] |                      bit[63:0] |   64 | 12874890618091173831 |
|        |         data[8] |                      bit[63:0] |   64 | 17420159980351706571 |
|        |         data[9] |                      bit[63:0] |   64 | 10240605488363618249 |
|        |        data[10] |                      bit[63:0] |   64 |  9859928131991848418 |
|        |        data[11] |                      bit[63:0] |   64 | 17102324223347341714 |
|        |        data[12] |                      bit[63:0] |   64 | 16963661067489841311 |
|        |        data[13] |                      bit[63:0] |   64 | 11026922811351440279 |
|        |        data[14] |                      bit[63:0] |   64 | 15942432259417045131 |
|        |        data[15] |                      bit[63:0] |   64 | 16237519939706115201 |
|        |        data[16] |                      bit[63:0] |   64 |  5446272419297029766 |
|        |        data[17] |                      bit[63:0] |   64 |  3979493840140120186 |
|        |        data[18] |                      bit[63:0] |   64 | 17024504007196112465 |
|        |        data[19] |                      bit[63:0] |   64 | 17625430375977710512 |
|        |        data[20] |                      bit[63:0] |   64 | 11626741709993842977 |
|        |        data[21] |                      bit[63:0] |   64 | 11048889889062400322 |
|        |        data[22] |                      bit[63:0] |   64 |  2406030918097223638 |
|        |        data[23] |                      bit[63:0] |   64 | 15994654944274646003 |
|        |        data[24] |                      bit[63:0] |   64 | 15039353849796546880 |
|        |        data[25] |                      bit[63:0] |   64 |  7873297812605727163 |
|        |        data[26] |                      bit[63:0] |   64 |  1385305595618064121 |
|        |        data[27] |                      bit[63:0] |   64 |  7036638003243820944 |
|        |        data[28] |                      bit[63:0] |   64 |  6352414477735295781 |
|        |        data[29] |                      bit[63:0] |   64 |  9055262252881344954 |
|        |        data[30] |                      bit[63:0] |   64 | 15674929897233079494 |
|        |        data[31] |                      bit[63:0] |   64 |  8480411663674337975 |
|        |        data[32] |                      bit[63:0] |   64 |  8895418805124471565 |
|        |        data[33] |                      bit[63:0] |   64 | 11452504435733548473 |
|        |        data[34] |                      bit[63:0] |   64 |   565619490268833893 |
|        |        data[35] |                      bit[63:0] |   64 | 14490801122005494120 |
|        |        data[36] |                      bit[63:0] |   64 | 17846784280391419028 |
|        |        data[37] |                      bit[63:0] |   64 | 14688936171620888064 |
|        |        data[38] |                      bit[63:0] |   64 | 15144809422469161558 |
|        |        data[39] |                      bit[63:0] |   64 |  9162358420588984060 |
|        |        data[40] |                      bit[63:0] |   64 |  3494619027696177692 |
|        |        data[41] |                      bit[63:0] |   64 |  2576318213458808049 |
|        |        data[42] |                      bit[63:0] |   64 | 15585938254361151649 |
|        |        data[43] |                      bit[63:0] |   64 |   111714200524889179 |
|        |        data[44] |                      bit[63:0] |   64 | 15571550005414577970 |
|        |        data[45] |                      bit[63:0] |   64 |  6379876231568973281 |
|        |        data[46] |                      bit[63:0] |   64 |  6272237545176378040 |
|        |        data[47] |                      bit[63:0] |   64 |  7367976093146948436 |
|        |        data[48] |                      bit[63:0] |   64 | 15659524568225779256 |
|        |        data[49] |                      bit[63:0] |   64 |  8003409570571075595 |
|        |        data[50] |                      bit[63:0] |   64 | 15129229152330385980 |
|        |        data[51] |                      bit[63:0] |   64 |  5236028783985075870 |
|        |        data[52] |                      bit[63:0] |   64 | 15043496942485698183 |
|        |        data[53] |                      bit[63:0] |   64 |  2542708231193666707 |
|        |        data[54] |                      bit[63:0] |   64 | 10385999433294761449 |
|        |        data[55] |                      bit[63:0] |   64 |  3938895490554552530 |
|        |        data[56] |                      bit[63:0] |   64 |  3832006856117612729 |
|        |        data[57] |                      bit[63:0] |   64 |  5966013409752572088 |
|        |        data[58] |                      bit[63:0] |   64 |  2734434907645339935 |
|        |        data[59] |                      bit[63:0] |   64 | 10222998926485534465 |
|     6. |        wstrb[0] |                       bit[7:0] |    8 |                  240 |
|        |        wstrb[1] |                       bit[7:0] |    8 |                   15 |
|        |        wstrb[2] |                       bit[7:0] |    8 |                  240 |
|        |        wstrb[3] |                       bit[7:0] |    8 |                   15 |
|        |        wstrb[4] |                       bit[7:0] |    8 |                  240 |
|        |        wstrb[5] |                       bit[7:0] |    8 |                   15 |
|        |        wstrb[6] |                       bit[7:0] |    8 |                  240 |
|        |        wstrb[7] |                       bit[7:0] |    8 |                   15 |
|        |        wstrb[8] |                       bit[7:0] |    8 |                  240 |
|        |        wstrb[9] |                       bit[7:0] |    8 |                   15 |
|        |       wstrb[10] |                       bit[7:0] |    8 |                  240 |
|        |       wstrb[11] |                       bit[7:0] |    8 |                   15 |
|        |       wstrb[12] |                       bit[7:0] |    8 |                  240 |
|        |       wstrb[13] |                       bit[7:0] |    8 |                   15 |
|        |       wstrb[14] |                       bit[7:0] |    8 |                  240 |
|        |       wstrb[15] |                       bit[7:0] |    8 |                   15 |
|        |       wstrb[16] |                       bit[7:0] |    8 |                  240 |
|        |       wstrb[17] |                       bit[7:0] |    8 |                   15 |
|        |       wstrb[18] |                       bit[7:0] |    8 |                  240 |
|        |       wstrb[19] |                       bit[7:0] |    8 |                   15 |
|        |       wstrb[20] |                       bit[7:0] |    8 |                  240 |
|        |       wstrb[21] |                       bit[7:0] |    8 |                   15 |
|        |       wstrb[22] |                       bit[7:0] |    8 |                  240 |
|        |       wstrb[23] |                       bit[7:0] |    8 |                   15 |
|        |       wstrb[24] |                       bit[7:0] |    8 |                  240 |
|        |       wstrb[25] |                       bit[7:0] |    8 |                   15 |
|        |       wstrb[26] |                       bit[7:0] |    8 |                  240 |
|        |       wstrb[27] |                       bit[7:0] |    8 |                   15 |
|        |       wstrb[28] |                       bit[7:0] |    8 |                  240 |
|        |       wstrb[29] |                       bit[7:0] |    8 |                   15 |
|        |       wstrb[30] |                       bit[7:0] |    8 |                  240 |
|        |       wstrb[31] |                       bit[7:0] |    8 |                   15 |
|        |       wstrb[32] |                       bit[7:0] |    8 |                  240 |
|        |       wstrb[33] |                       bit[7:0] |    8 |                   15 |
|        |       wstrb[34] |                       bit[7:0] |    8 |                  240 |
|        |       wstrb[35] |                       bit[7:0] |    8 |                   15 |
|        |       wstrb[36] |                       bit[7:0] |    8 |                  240 |
|        |       wstrb[37] |                       bit[7:0] |    8 |                   15 |
|        |       wstrb[38] |                       bit[7:0] |    8 |                  240 |
|        |       wstrb[39] |                       bit[7:0] |    8 |                   15 |
|        |       wstrb[40] |                       bit[7:0] |    8 |                  240 |
|        |       wstrb[41] |                       bit[7:0] |    8 |                   15 |
|        |       wstrb[42] |                       bit[7:0] |    8 |                  240 |
|        |       wstrb[43] |                       bit[7:0] |    8 |                   15 |
|        |       wstrb[44] |                       bit[7:0] |    8 |                  240 |
|        |       wstrb[45] |                       bit[7:0] |    8 |                   15 |
|        |       wstrb[46] |                       bit[7:0] |    8 |                  240 |
|        |       wstrb[47] |                       bit[7:0] |    8 |                   15 |
|        |       wstrb[48] |                       bit[7:0] |    8 |                  240 |
|        |       wstrb[49] |                       bit[7:0] |    8 |                   15 |
|        |       wstrb[50] |                       bit[7:0] |    8 |                  240 |
|        |       wstrb[51] |                       bit[7:0] |    8 |                   15 |
|        |       wstrb[52] |                       bit[7:0] |    8 |                  240 |
|        |       wstrb[53] |                       bit[7:0] |    8 |                   15 |
|        |       wstrb[54] |                       bit[7:0] |    8 |                  240 |
|        |       wstrb[55] |                       bit[7:0] |    8 |                   15 |
|        |       wstrb[56] |                       bit[7:0] |    8 |                  240 |
|        |       wstrb[57] |                       bit[7:0] |    8 |                   15 |
|        |       wstrb[58] |                       bit[7:0] |    8 |                  240 |
|        |       wstrb[59] |                       bit[7:0] |    8 |                   15 |
|     7. |           bresp |         enum $unit::response_e |    2 |                 OKAY |
+=========================================================================================+
>>>>>>> 82bef44bc9897a347b797b7b476cee882498cc31
[SLV_DRV] 		@0 --> fork join disabled
-------------------------------------------------------------
################ RESET HAS BEEN ASSERTED !! #################
############### SLAVE DRIVER HAS BEEN PAUSED !! #############
-------------------------------------------------------------
################ RESET HAS BEEN DEASSERTED !! ############## 
-------------------------------------------------------------
<<<<<<< HEAD
------- write_address = dfaaf00c
------- write burst = 1
------- write_len = 3b
------- write_size = 2
=======
<<<<<<< HEAD
read data queue size = 0
write data queue size = 0
write response queue size = 0
------- write_address = 65c7e4e5
------- write burst = 1
------- write_len = 3c
------- write_size = 1
------------------------------------------------------------
[Write Address Channel] 		@5 --> AWREADY Asserted
----------------------------------------------------------:---
@15 write handshake occured -> 1707599077
[Write Address Channel] 		@15 --> AWVALID & AWREADY Handshaked 
[Write Address Channel] 		@15 --> write data queue = '{{ ref to class ei_axi4_transaction_c#(64,32)}} 
------------------------------------------------------------
------------------------------------------------------------
[Write Address Channel] 		@15 --> AWREADY Asserted
@15 write handshake occured -> 1707599077
[MST DRV] --> .... @615 WLAST Asserted
[MST DRV] --> .... @625 WLAST Deasserted
+=========================================================================================+
| Transaction Type :      WRITE [MONITOR FOR WRITE] @  655                                       |
+=========================================================================================+
| Sr No  |            Name |                           Type | Size |                Value |
+=========================================================================================+
|     1. |            addr |                      bit[31:0] |   32 |           1707599077 |
|     2. |           burst |       enum $unit::burst_type_e |    2 |                 INCR |
|     3. |             len |                       bit[7:0] |    8 |                   60 |
|     4. |            size |                       bit[2:0] |    3 |                    1 |
|     5. |         data[0] |                      bit[63:0] |   64 |  2064701248262552264 |
|        |         data[1] |                      bit[63:0] |   64 | 14946791503655411466 |
|        |         data[2] |                      bit[63:0] |   64 |  8179823655543466194 |
|        |         data[3] |                      bit[63:0] |   64 |  8982832903279783320 |
|        |         data[4] |                      bit[63:0] |   64 |  7043497981439899215 |
|        |         data[5] |                      bit[63:0] |   64 | 13731916183500350100 |
|        |         data[6] |                      bit[63:0] |   64 |  7972315797286207137 |
|        |         data[7] |                      bit[63:0] |   64 | 18339796134995596273 |
|        |         data[8] |                      bit[63:0] |   64 |  4828412993615851332 |
|        |         data[9] |                      bit[63:0] |   64 |  8592653879347210909 |
|        |        data[10] |                      bit[63:0] |   64 | 13554397291679810110 |
|        |        data[11] |                      bit[63:0] |   64 | 13363854409309165492 |
|        |        data[12] |                      bit[63:0] |   64 | 10185082606515494098 |
|        |        data[13] |                      bit[63:0] |   64 |  4229145394549330486 |
|        |        data[14] |                      bit[63:0] |   64 |  4914987842652273988 |
|        |        data[15] |                      bit[63:0] |   64 | 11012238269332620239 |
|        |        data[16] |                      bit[63:0] |   64 |  4266224235456513295 |
|        |        data[17] |                      bit[63:0] |   64 |  8175524452950026721 |
|        |        data[18] |                      bit[63:0] |   64 |  8442586332321142726 |
|        |        data[19] |                      bit[63:0] |   64 | 10743852902292487263 |
|        |        data[20] |                      bit[63:0] |   64 | 10062159701727118169 |
|        |        data[21] |                      bit[63:0] |   64 | 16700947402170778216 |
|        |        data[22] |                      bit[63:0] |   64 | 17530662308770395657 |
|        |        data[23] |                      bit[63:0] |   64 |   965843687493850386 |
|        |        data[24] |                      bit[63:0] |   64 | 13947495018564539968 |
|        |        data[25] |                      bit[63:0] |   64 | 14528793004639668123 |
|        |        data[26] |                      bit[63:0] |   64 |  9152139600646746392 |
|        |        data[27] |                      bit[63:0] |   64 | 17326759171367535144 |
|        |        data[28] |                      bit[63:0] |   64 |  1287001571137122698 |
|        |        data[29] |                      bit[63:0] |   64 | 11326558374577401564 |
|        |        data[30] |                      bit[63:0] |   64 |  4279645587507753114 |
|        |        data[31] |                      bit[63:0] |   64 | 10786729193711125966 |
|        |        data[32] |                      bit[63:0] |   64 | 11935361381297440559 |
|        |        data[33] |                      bit[63:0] |   64 |  8901125013208654964 |
|        |        data[34] |                      bit[63:0] |   64 |  1296840387431853131 |
|        |        data[35] |                      bit[63:0] |   64 |  3438442354242426724 |
|        |        data[36] |                      bit[63:0] |   64 |  2215996327499584927 |
|        |        data[37] |                      bit[63:0] |   64 | 14381634376870801240 |
|        |        data[38] |                      bit[63:0] |   64 |  3964458689871398760 |
|        |        data[39] |                      bit[63:0] |   64 |  5951372837190812437 |
|        |        data[40] |                      bit[63:0] |   64 |  1620065046270754112 |
|        |        data[41] |                      bit[63:0] |   64 |  8025945075981720066 |
|        |        data[42] |                      bit[63:0] |   64 | 11904287147797971879 |
|        |        data[43] |                      bit[63:0] |   64 |  8335267060283990126 |
|        |        data[44] |                      bit[63:0] |   64 | 10888166950784273187 |
|        |        data[45] |                      bit[63:0] |   64 |   667586928428638131 |
|        |        data[46] |                      bit[63:0] |   64 | 15369308525990132183 |
|        |        data[47] |                      bit[63:0] |   64 | 11267877851853382328 |
|        |        data[48] |                      bit[63:0] |   64 | 14817621990652091067 |
|        |        data[49] |                      bit[63:0] |   64 | 15471958705157457761 |
|        |        data[50] |                      bit[63:0] |   64 | 17939053010995615728 |
|        |        data[51] |                      bit[63:0] |   64 |  5314646700168735158 |
|        |        data[52] |                      bit[63:0] |   64 |  5840200475440430343 |
|        |        data[53] |                      bit[63:0] |   64 |  6789655795505090832 |
|        |        data[54] |                      bit[63:0] |   64 | 15540923388496934050 |
|        |        data[55] |                      bit[63:0] |   64 |  9951853354707334914 |
|        |        data[56] |                      bit[63:0] |   64 | 15569676708807254794 |
|        |        data[57] |                      bit[63:0] |   64 | 13757198338886871874 |
|        |        data[58] |                      bit[63:0] |   64 |  7191472860844920613 |
|        |        data[59] |                      bit[63:0] |   64 | 15649208270123447671 |
|        |        data[60] |                      bit[63:0] |   64 | 10808239045723419771 |
|     6. |        wstrb[0] |                       bit[7:0] |    8 |                   32 |
|        |        wstrb[1] |                       bit[7:0] |    8 |                  192 |
|        |        wstrb[2] |                       bit[7:0] |    8 |                    3 |
|        |        wstrb[3] |                       bit[7:0] |    8 |                   12 |
|        |        wstrb[4] |                       bit[7:0] |    8 |                   48 |
|        |        wstrb[5] |                       bit[7:0] |    8 |                  192 |
|        |        wstrb[6] |                       bit[7:0] |    8 |                    3 |
|        |        wstrb[7] |                       bit[7:0] |    8 |                   12 |
|        |        wstrb[8] |                       bit[7:0] |    8 |                   48 |
|        |        wstrb[9] |                       bit[7:0] |    8 |                  192 |
|        |       wstrb[10] |                       bit[7:0] |    8 |                    3 |
|        |       wstrb[11] |                       bit[7:0] |    8 |                   12 |
|        |       wstrb[12] |                       bit[7:0] |    8 |                   48 |
|        |       wstrb[13] |                       bit[7:0] |    8 |                  192 |
|        |       wstrb[14] |                       bit[7:0] |    8 |                    3 |
|        |       wstrb[15] |                       bit[7:0] |    8 |                   12 |
|        |       wstrb[16] |                       bit[7:0] |    8 |                   48 |
|        |       wstrb[17] |                       bit[7:0] |    8 |                  192 |
|        |       wstrb[18] |                       bit[7:0] |    8 |                    3 |
|        |       wstrb[19] |                       bit[7:0] |    8 |                   12 |
|        |       wstrb[20] |                       bit[7:0] |    8 |                   48 |
|        |       wstrb[21] |                       bit[7:0] |    8 |                  192 |
|        |       wstrb[22] |                       bit[7:0] |    8 |                    3 |
|        |       wstrb[23] |                       bit[7:0] |    8 |                   12 |
|        |       wstrb[24] |                       bit[7:0] |    8 |                   48 |
|        |       wstrb[25] |                       bit[7:0] |    8 |                  192 |
|        |       wstrb[26] |                       bit[7:0] |    8 |                    3 |
|        |       wstrb[27] |                       bit[7:0] |    8 |                   12 |
|        |       wstrb[28] |                       bit[7:0] |    8 |                   48 |
|        |       wstrb[29] |                       bit[7:0] |    8 |                  192 |
|        |       wstrb[30] |                       bit[7:0] |    8 |                    3 |
|        |       wstrb[31] |                       bit[7:0] |    8 |                   12 |
|        |       wstrb[32] |                       bit[7:0] |    8 |                   48 |
|        |       wstrb[33] |                       bit[7:0] |    8 |                  192 |
|        |       wstrb[34] |                       bit[7:0] |    8 |                    3 |
|        |       wstrb[35] |                       bit[7:0] |    8 |                   12 |
|        |       wstrb[36] |                       bit[7:0] |    8 |                   48 |
|        |       wstrb[37] |                       bit[7:0] |    8 |                  192 |
|        |       wstrb[38] |                       bit[7:0] |    8 |                    3 |
|        |       wstrb[39] |                       bit[7:0] |    8 |                   12 |
|        |       wstrb[40] |                       bit[7:0] |    8 |                   48 |
|        |       wstrb[41] |                       bit[7:0] |    8 |                  192 |
|        |       wstrb[42] |                       bit[7:0] |    8 |                    3 |
|        |       wstrb[43] |                       bit[7:0] |    8 |                   12 |
|        |       wstrb[44] |                       bit[7:0] |    8 |                   48 |
|        |       wstrb[45] |                       bit[7:0] |    8 |                  192 |
|        |       wstrb[46] |                       bit[7:0] |    8 |                    3 |
|        |       wstrb[47] |                       bit[7:0] |    8 |                   12 |
|        |       wstrb[48] |                       bit[7:0] |    8 |                   48 |
|        |       wstrb[49] |                       bit[7:0] |    8 |                  192 |
|        |       wstrb[50] |                       bit[7:0] |    8 |                    3 |
|        |       wstrb[51] |                       bit[7:0] |    8 |                   12 |
|        |       wstrb[52] |                       bit[7:0] |    8 |                   48 |
|        |       wstrb[53] |                       bit[7:0] |    8 |                  192 |
|        |       wstrb[54] |                       bit[7:0] |    8 |                    3 |
|        |       wstrb[55] |                       bit[7:0] |    8 |                   12 |
|        |       wstrb[56] |                       bit[7:0] |    8 |                   48 |
|        |       wstrb[57] |                       bit[7:0] |    8 |                  192 |
|        |       wstrb[58] |                       bit[7:0] |    8 |                    3 |
|        |       wstrb[59] |                       bit[7:0] |    8 |                   12 |
|        |       wstrb[60] |                       bit[7:0] |    8 |                   48 |
|     7. |           bresp |         enum $unit::response_e |    2 |                 OKAY |
+=========================================================================================+
no_of_trans_monitored = 1
[GEN] ==================== Randomizing ========================
+=========================================================================================+
| Transaction Type :       READ              @  655                                       |
+=========================================================================================+
| Sr No  |            Name |                           Type | Size |                Value |
+=========================================================================================+
|     1. |            addr |                      bit[31:0] |   32 |           1707599077 |
|     2. |           burst |       enum $unit::burst_type_e |    2 |                 INCR |
|     3. |             len |                       bit[7:0] |    8 |                   60 |
|     4. |            size |                       bit[2:0] |    3 |                    1 |
|     5. |         data[0] |                      bit[63:0] |   64 |                    0 |
+=========================================================================================+
|     6. |        rresp[0] |         enum $unit::response_e |    2 |                 OKAY |
+=========================================================================================+
@675 read handshake occured -> 1707599077
[Write Address Channel] 		@675 ARVALID & ARREADY Handshaked 
----------------------------------------------------------:---
@675 read handshake occured -> 1707599077
time                 675
time                 685
time                 695
time                 705
time                 715
time                 725
time                 735
time                 745
time                 755
time                 765
time                 775
time                 785
time                 795
time                 805
time                 815
time                 825
time                 835
time                 845
time                 855
time                 865
time                 875
time                 885
time                 895
time                 905
time                 915
time                 925
time                 935
time                 945
time                 955
time                 965
time                 975
time                 985
time                 995
time                1005
time                1015
time                1025
time                1035
time                1045
time                1055
time                1065
time                1075
time                1085
time                1095
time                1105
time                1115
time                1125
time                1135
time                1145
time                1155
time                1165
time                1175
time                1185
time                1195
time                1205
time                1215
time                1225
time                1235
time                1245
time                1255
time                1265
time                1275
time                1285
time                1285
reference_model address -=-==-=-=-=-=-=-=-=-=-=-=-=-=-=--=-=-=-=-= > = 1707599077
4kb_boundary if confdition dnskjfhbvhjAVDOKFDLISAGIDGSAISKFKUDSFKADS
reference_model address -=-==-=-=-=-=-=-=-=-=-=-=-=-=-=--=-=-=-=-= > = 1707599077
4kb_boundary if confdition dnskjfhbvhjAVDOKFDLISAGIDGSAISKFKUDSFKADS
reference_model address -=-==-=-=-=-=-=-=-=-=-=-=-=-=-=--=-=-=-=-= > = 1707599077
4kb_boundary if confdition dnskjfhbvhjAVDOKFDLISAGIDGSAISKFKUDSFKADS
reference_model address -=-==-=-=-=-=-=-=-=-=-=-=-=-=-=--=-=-=-=-= > = 1707599077
4kb_boundary if confdition dnskjfhbvhjAVDOKFDLISAGIDGSAISKFKUDSFKADS
reference_model address -=-==-=-=-=-=-=-=-=-=-=-=-=-=-=--=-=-=-=-= > = 1707599077
4kb_boundary if confdition dnskjfhbvhjAVDOKFDLISAGIDGSAISKFKUDSFKADS
reference_model address -=-==-=-=-=-=-=-=-=-=-=-=-=-=-=--=-=-=-=-= > = 1707599077
4kb_boundary if confdition dnskjfhbvhjAVDOKFDLISAGIDGSAISKFKUDSFKADS
reference_model address -=-==-=-=-=-=-=-=-=-=-=-=-=-=-=--=-=-=-=-= > = 1707599077
4kb_boundary if confdition dnskjfhbvhjAVDOKFDLISAGIDGSAISKFKUDSFKADS
reference_model address -=-==-=-=-=-=-=-=-=-=-=-=-=-=-=--=-=-=-=-= > = 1707599077
4kb_boundary if confdition dnskjfhbvhjAVDOKFDLISAGIDGSAISKFKUDSFKADS
reference_model address -=-==-=-=-=-=-=-=-=-=-=-=-=-=-=--=-=-=-=-= > = 1707599077
4kb_boundary if confdition dnskjfhbvhjAVDOKFDLISAGIDGSAISKFKUDSFKADS
reference_model address -=-==-=-=-=-=-=-=-=-=-=-=-=-=-=--=-=-=-=-= > = 1707599077
4kb_boundary if confdition dnskjfhbvhjAVDOKFDLISAGIDGSAISKFKUDSFKADS
reference_model address -=-==-=-=-=-=-=-=-=-=-=-=-=-=-=--=-=-=-=-= > = 1707599077
4kb_boundary if confdition dnskjfhbvhjAVDOKFDLISAGIDGSAISKFKUDSFKADS
reference_model address -=-==-=-=-=-=-=-=-=-=-=-=-=-=-=--=-=-=-=-= > = 1707599077
4kb_boundary if confdition dnskjfhbvhjAVDOKFDLISAGIDGSAISKFKUDSFKADS
reference_model address -=-==-=-=-=-=-=-=-=-=-=-=-=-=-=--=-=-=-=-= > = 1707599077
4kb_boundary if confdition dnskjfhbvhjAVDOKFDLISAGIDGSAISKFKUDSFKADS
reference_model address -=-==-=-=-=-=-=-=-=-=-=-=-=-=-=--=-=-=-=-= > = 1707599077
4kb_boundary if confdition dnskjfhbvhjAVDOKFDLISAGIDGSAISKFKUDSFKADS
reference_model address -=-==-=-=-=-=-=-=-=-=-=-=-=-=-=--=-=-=-=-= > = 1707599077
4kb_boundary if confdition dnskjfhbvhjAVDOKFDLISAGIDGSAISKFKUDSFKADS
reference_model address -=-==-=-=-=-=-=-=-=-=-=-=-=-=-=--=-=-=-=-= > = 1707599077
4kb_boundary if confdition dnskjfhbvhjAVDOKFDLISAGIDGSAISKFKUDSFKADS
reference_model address -=-==-=-=-=-=-=-=-=-=-=-=-=-=-=--=-=-=-=-= > = 1707599077
4kb_boundary if confdition dnskjfhbvhjAVDOKFDLISAGIDGSAISKFKUDSFKADS
reference_model address -=-==-=-=-=-=-=-=-=-=-=-=-=-=-=--=-=-=-=-= > = 1707599077
4kb_boundary if confdition dnskjfhbvhjAVDOKFDLISAGIDGSAISKFKUDSFKADS
reference_model address -=-==-=-=-=-=-=-=-=-=-=-=-=-=-=--=-=-=-=-= > = 1707599077
4kb_boundary if confdition dnskjfhbvhjAVDOKFDLISAGIDGSAISKFKUDSFKADS
reference_model address -=-==-=-=-=-=-=-=-=-=-=-=-=-=-=--=-=-=-=-= > = 1707599077
4kb_boundary if confdition dnskjfhbvhjAVDOKFDLISAGIDGSAISKFKUDSFKADS
reference_model address -=-==-=-=-=-=-=-=-=-=-=-=-=-=-=--=-=-=-=-= > = 1707599077
4kb_boundary if confdition dnskjfhbvhjAVDOKFDLISAGIDGSAISKFKUDSFKADS
reference_model address -=-==-=-=-=-=-=-=-=-=-=-=-=-=-=--=-=-=-=-= > = 1707599077
4kb_boundary if confdition dnskjfhbvhjAVDOKFDLISAGIDGSAISKFKUDSFKADS
reference_model address -=-==-=-=-=-=-=-=-=-=-=-=-=-=-=--=-=-=-=-= > = 1707599077
4kb_boundary if confdition dnskjfhbvhjAVDOKFDLISAGIDGSAISKFKUDSFKADS
reference_model address -=-==-=-=-=-=-=-=-=-=-=-=-=-=-=--=-=-=-=-= > = 1707599077
4kb_boundary if confdition dnskjfhbvhjAVDOKFDLISAGIDGSAISKFKUDSFKADS
reference_model address -=-==-=-=-=-=-=-=-=-=-=-=-=-=-=--=-=-=-=-= > = 1707599077
4kb_boundary if confdition dnskjfhbvhjAVDOKFDLISAGIDGSAISKFKUDSFKADS
reference_model address -=-==-=-=-=-=-=-=-=-=-=-=-=-=-=--=-=-=-=-= > = 1707599077
4kb_boundary if confdition dnskjfhbvhjAVDOKFDLISAGIDGSAISKFKUDSFKADS
reference_model address -=-==-=-=-=-=-=-=-=-=-=-=-=-=-=--=-=-=-=-= > = 1707599077
4kb_boundary if confdition dnskjfhbvhjAVDOKFDLISAGIDGSAISKFKUDSFKADS
reference_model address -=-==-=-=-=-=-=-=-=-=-=-=-=-=-=--=-=-=-=-= > = 1707599077
4kb_boundary if confdition dnskjfhbvhjAVDOKFDLISAGIDGSAISKFKUDSFKADS
reference_model address -=-==-=-=-=-=-=-=-=-=-=-=-=-=-=--=-=-=-=-= > = 1707599077
4kb_boundary if confdition dnskjfhbvhjAVDOKFDLISAGIDGSAISKFKUDSFKADS
reference_model address -=-==-=-=-=-=-=-=-=-=-=-=-=-=-=--=-=-=-=-= > = 1707599077
4kb_boundary if confdition dnskjfhbvhjAVDOKFDLISAGIDGSAISKFKUDSFKADS
reference_model address -=-==-=-=-=-=-=-=-=-=-=-=-=-=-=--=-=-=-=-= > = 1707599077
4kb_boundary if confdition dnskjfhbvhjAVDOKFDLISAGIDGSAISKFKUDSFKADS
reference_model address -=-==-=-=-=-=-=-=-=-=-=-=-=-=-=--=-=-=-=-= > = 1707599077
4kb_boundary if confdition dnskjfhbvhjAVDOKFDLISAGIDGSAISKFKUDSFKADS
reference_model address -=-==-=-=-=-=-=-=-=-=-=-=-=-=-=--=-=-=-=-= > = 1707599077
4kb_boundary if confdition dnskjfhbvhjAVDOKFDLISAGIDGSAISKFKUDSFKADS
reference_model address -=-==-=-=-=-=-=-=-=-=-=-=-=-=-=--=-=-=-=-= > = 1707599077
4kb_boundary if confdition dnskjfhbvhjAVDOKFDLISAGIDGSAISKFKUDSFKADS
reference_model address -=-==-=-=-=-=-=-=-=-=-=-=-=-=-=--=-=-=-=-= > = 1707599077
4kb_boundary if confdition dnskjfhbvhjAVDOKFDLISAGIDGSAISKFKUDSFKADS
reference_model address -=-==-=-=-=-=-=-=-=-=-=-=-=-=-=--=-=-=-=-= > = 1707599077
4kb_boundary if confdition dnskjfhbvhjAVDOKFDLISAGIDGSAISKFKUDSFKADS
reference_model address -=-==-=-=-=-=-=-=-=-=-=-=-=-=-=--=-=-=-=-= > = 1707599077
4kb_boundary if confdition dnskjfhbvhjAVDOKFDLISAGIDGSAISKFKUDSFKADS
reference_model address -=-==-=-=-=-=-=-=-=-=-=-=-=-=-=--=-=-=-=-= > = 1707599077
4kb_boundary if confdition dnskjfhbvhjAVDOKFDLISAGIDGSAISKFKUDSFKADS
reference_model address -=-==-=-=-=-=-=-=-=-=-=-=-=-=-=--=-=-=-=-= > = 1707599077
4kb_boundary if confdition dnskjfhbvhjAVDOKFDLISAGIDGSAISKFKUDSFKADS
reference_model address -=-==-=-=-=-=-=-=-=-=-=-=-=-=-=--=-=-=-=-= > = 1707599077
4kb_boundary if confdition dnskjfhbvhjAVDOKFDLISAGIDGSAISKFKUDSFKADS
reference_model address -=-==-=-=-=-=-=-=-=-=-=-=-=-=-=--=-=-=-=-= > = 1707599077
4kb_boundary if confdition dnskjfhbvhjAVDOKFDLISAGIDGSAISKFKUDSFKADS
reference_model address -=-==-=-=-=-=-=-=-=-=-=-=-=-=-=--=-=-=-=-= > = 1707599077
4kb_boundary if confdition dnskjfhbvhjAVDOKFDLISAGIDGSAISKFKUDSFKADS
reference_model address -=-==-=-=-=-=-=-=-=-=-=-=-=-=-=--=-=-=-=-= > = 1707599077
4kb_boundary if confdition dnskjfhbvhjAVDOKFDLISAGIDGSAISKFKUDSFKADS
reference_model address -=-==-=-=-=-=-=-=-=-=-=-=-=-=-=--=-=-=-=-= > = 1707599077
4kb_boundary if confdition dnskjfhbvhjAVDOKFDLISAGIDGSAISKFKUDSFKADS
reference_model address -=-==-=-=-=-=-=-=-=-=-=-=-=-=-=--=-=-=-=-= > = 1707599077
4kb_boundary if confdition dnskjfhbvhjAVDOKFDLISAGIDGSAISKFKUDSFKADS
reference_model address -=-==-=-=-=-=-=-=-=-=-=-=-=-=-=--=-=-=-=-= > = 1707599077
4kb_boundary if confdition dnskjfhbvhjAVDOKFDLISAGIDGSAISKFKUDSFKADS
reference_model address -=-==-=-=-=-=-=-=-=-=-=-=-=-=-=--=-=-=-=-= > = 1707599077
4kb_boundary if confdition dnskjfhbvhjAVDOKFDLISAGIDGSAISKFKUDSFKADS
reference_model address -=-==-=-=-=-=-=-=-=-=-=-=-=-=-=--=-=-=-=-= > = 1707599077
4kb_boundary if confdition dnskjfhbvhjAVDOKFDLISAGIDGSAISKFKUDSFKADS
reference_model address -=-==-=-=-=-=-=-=-=-=-=-=-=-=-=--=-=-=-=-= > = 1707599077
4kb_boundary if confdition dnskjfhbvhjAVDOKFDLISAGIDGSAISKFKUDSFKADS
reference_model address -=-==-=-=-=-=-=-=-=-=-=-=-=-=-=--=-=-=-=-= > = 1707599077
4kb_boundary if confdition dnskjfhbvhjAVDOKFDLISAGIDGSAISKFKUDSFKADS
reference_model address -=-==-=-=-=-=-=-=-=-=-=-=-=-=-=--=-=-=-=-= > = 1707599077
4kb_boundary if confdition dnskjfhbvhjAVDOKFDLISAGIDGSAISKFKUDSFKADS
reference_model address -=-==-=-=-=-=-=-=-=-=-=-=-=-=-=--=-=-=-=-= > = 1707599077
4kb_boundary if confdition dnskjfhbvhjAVDOKFDLISAGIDGSAISKFKUDSFKADS
reference_model address -=-==-=-=-=-=-=-=-=-=-=-=-=-=-=--=-=-=-=-= > = 1707599077
4kb_boundary if confdition dnskjfhbvhjAVDOKFDLISAGIDGSAISKFKUDSFKADS
reference_model address -=-==-=-=-=-=-=-=-=-=-=-=-=-=-=--=-=-=-=-= > = 1707599077
4kb_boundary if confdition dnskjfhbvhjAVDOKFDLISAGIDGSAISKFKUDSFKADS
reference_model address -=-==-=-=-=-=-=-=-=-=-=-=-=-=-=--=-=-=-=-= > = 1707599077
4kb_boundary if confdition dnskjfhbvhjAVDOKFDLISAGIDGSAISKFKUDSFKADS
reference_model address -=-==-=-=-=-=-=-=-=-=-=-=-=-=-=--=-=-=-=-= > = 1707599077
4kb_boundary if confdition dnskjfhbvhjAVDOKFDLISAGIDGSAISKFKUDSFKADS
reference_model address -=-==-=-=-=-=-=-=-=-=-=-=-=-=-=--=-=-=-=-= > = 1707599077
4kb_boundary if confdition dnskjfhbvhjAVDOKFDLISAGIDGSAISKFKUDSFKADS
reference_model address -=-==-=-=-=-=-=-=-=-=-=-=-=-=-=--=-=-=-=-= > = 1707599077
4kb_boundary if confdition dnskjfhbvhjAVDOKFDLISAGIDGSAISKFKUDSFKADS
reference_model address -=-==-=-=-=-=-=-=-=-=-=-=-=-=-=--=-=-=-=-= > = 1707599077
4kb_boundary if confdition dnskjfhbvhjAVDOKFDLISAGIDGSAISKFKUDSFKADS
reference_model address -=-==-=-=-=-=-=-=-=-=-=-=-=-=-=--=-=-=-=-= > = 1707599077
4kb_boundary if confdition dnskjfhbvhjAVDOKFDLISAGIDGSAISKFKUDSFKADS
reference_model address -=-==-=-=-=-=-=-=-=-=-=-=-=-=-=--=-=-=-=-= > = 1707599077
4kb_boundary if confdition dnskjfhbvhjAVDOKFDLISAGIDGSAISKFKUDSFKADS
got from reference
+=========================================================================================+
| Transaction Type :       READ     [GOLDEN] @ 1335                                       |
+=========================================================================================+
| Sr No  |            Name |                           Type | Size |                Value |
+=========================================================================================+
|     1. |            addr |                      bit[31:0] |   32 |           1707599077 |
|     2. |           burst |       enum $unit::burst_type_e |    2 |                 INCR |
|     3. |             len |                       bit[7:0] |    8 |                   60 |
|     4. |            size |                       bit[2:0] |    3 |                    1 |
|     5. |         data[0] |                      bit[63:0] |   64 |       81363860455424 |
|        |         data[1] |                      bit[63:0] |   64 | 14946602738312544256 |
|        |         data[2] |                      bit[63:0] |   64 |                26834 |
|        |         data[3] |                      bit[63:0] |   64 |           3031302144 |
|        |         data[4] |                      bit[63:0] |   64 |      149636660592640 |
|        |         data[5] |                      bit[63:0] |   64 | 13731756738829352960 |
|        |         data[6] |                      bit[63:0] |   64 |                48801 |
|        |         data[7] |                      bit[63:0] |   64 |           2541617152 |
|        |         data[8] |                      bit[63:0] |   64 |      272717538394112 |
|        |         data[9] |                      bit[63:0] |   64 |  8592586614046195712 |
|        |        data[10] |                      bit[63:0] |   64 |                33342 |
|        |        data[11] |                      bit[63:0] |   64 |           3504930816 |
|        |        data[12] |                      bit[63:0] |   64 |      192045167673344 |
|        |        data[13] |                      bit[63:0] |   64 |  4228880050100895744 |
|        |        data[14] |                      bit[63:0] |   64 |                64836 |
|        |        data[15] |                      bit[63:0] |   64 |           1367867392 |
|        |        data[16] |                      bit[63:0] |   64 |      189485367164928 |
|        |        data[17] |                      bit[63:0] |   64 |  8175440698561003520 |
|        |        data[18] |                      bit[63:0] |   64 |                55238 |
|        |        data[19] |                      bit[63:0] |   64 |           2419130368 |
|        |        data[20] |                      bit[63:0] |   64 |      273705380872192 |
|        |        data[21] |                      bit[63:0] |   64 | 16700754793173352448 |
|        |        data[22] |                      bit[63:0] |   64 |                46601 |
|        |        data[23] |                      bit[63:0] |   64 |           1839136768 |
|        |        data[24] |                      bit[63:0] |   64 |      128445291954176 |
|        |        data[25] |                      bit[63:0] |   64 | 14528612397897220096 |
|        |        data[26] |                      bit[63:0] |   64 |                45336 |
|        |        data[27] |                      bit[63:0] |   64 |           1310326784 |
|        |        data[28] |                      bit[63:0] |   64 |       97976793956352 |
|        |        data[29] |                      bit[63:0] |   64 | 11326553062836797440 |
|        |        data[30] |                      bit[63:0] |   64 |                45210 |
|        |        data[31] |                      bit[63:0] |   64 |            394002432 |
|        |        data[32] |                      bit[63:0] |   64 |      259416024678400 |
|        |        data[33] |                      bit[63:0] |   64 |  8901083188521074688 |
|        |        data[34] |                      bit[63:0] |   64 |                27723 |
|        |        data[35] |                      bit[63:0] |   64 |           2168913920 |
|        |        data[36] |                      bit[63:0] |   64 |      225309689380864 |
|        |        data[37] |                      bit[63:0] |   64 | 14381400985077547008 |
|        |        data[38] |                      bit[63:0] |   64 |                51048 |
|        |        data[39] |                      bit[63:0] |   64 |           1319763968 |
|        |        data[40] |                      bit[63:0] |   64 |      176553220636672 |
|        |        data[41] |                      bit[63:0] |   64 |  8025696010950934528 |
|        |        data[42] |                      bit[63:0] |   64 |                  935 |
|        |        data[43] |                      bit[63:0] |   64 |           2889678848 |
|        |        data[44] |                      bit[63:0] |   64 |      151900108357632 |
|        |        data[45] |                      bit[63:0] |   64 |   667377169780965376 |
|        |        data[46] |                      bit[63:0] |   64 |                14807 |
|        |        data[47] |                      bit[63:0] |   64 |           3694526464 |
|        |        data[48] |                      bit[63:0] |   64 |      216264488255488 |
|        |        data[49] |                      bit[63:0] |   64 | 15471835044854628352 |
|        |        data[50] |                      bit[63:0] |   64 |                38896 |
|        |        data[51] |                      bit[63:0] |   64 |           4265738240 |
|        |        data[52] |                      bit[63:0] |   64 |      157655364534272 |
|        |        data[53] |                      bit[63:0] |   64 |  6789457913237733376 |
|        |        data[54] |                      bit[63:0] |   64 |                29858 |
|        |        data[55] |                      bit[63:0] |   64 |            538705920 |
|        |        data[56] |                      bit[63:0] |   64 |      169844481720320 |
|        |        data[57] |                      bit[63:0] |   64 | 13757089486733312000 |
|        |        data[58] |                      bit[63:0] |   64 |                 3877 |
|        |        data[59] |                      bit[63:0] |   64 |            886046720 |
|        |        data[60] |                      bit[63:0] |   64 |      162886634700800 |
=======
>>>>>>> c11166c6dcc600c4b6a7217a8be3bda970fcf681
------------------------------------------------------------
[Write Address Channel] 		@5 --> AWREADY Asserted
----------------------------------------------------------:---
@15 write handshake occured -> 3752521740
[Write Address Channel] 		@15 --> AWVALID & AWREADY Handshaked 
[Write Address Channel] 		@15 --> write data queue = '{{ ref to class ei_axi4_transaction_c#(64,32)}} 
------------------------------------------------------------
------------------------------------------------------------
[Write Address Channel] 		@15 --> AWREADY Asserted
@15 write handshake occured -> 3752521740
[MST DRV] --> .... @605 WLAST Asserted
[MST DRV] --> .... @615 WLAST Deasserted
+=========================================================================================+
| Transaction Type :      WRITE [MONITOR FOR WRITE] @  645                                       |
+=========================================================================================+
| Sr No  |            Name |                           Type | Size |                Value |
+=========================================================================================+
|     1. |            addr |                      bit[31:0] |   32 |           3752521740 |
|     2. |           burst |       enum $unit::burst_type_e |    2 |                 INCR |
|     3. |             len |                       bit[7:0] |    8 |                   59 |
|     4. |            size |                       bit[2:0] |    3 |                    2 |
|     5. |         data[0] |                      bit[63:0] |   64 |  5663618189114700409 |
|        |         data[1] |                      bit[63:0] |   64 |   958869203649472895 |
|        |         data[2] |                      bit[63:0] |   64 | 16187322101798546758 |
|        |         data[3] |                      bit[63:0] |   64 |  4678559303570662293 |
|        |         data[4] |                      bit[63:0] |   64 |  7021212999338167461 |
|        |         data[5] |                      bit[63:0] |   64 | 17326058638080372915 |
|        |         data[6] |                      bit[63:0] |   64 |  9928443620645728309 |
|        |         data[7] |                      bit[63:0] |   64 | 12874890618091173831 |
|        |         data[8] |                      bit[63:0] |   64 | 17420159980351706571 |
|        |         data[9] |                      bit[63:0] |   64 | 10240605488363618249 |
|        |        data[10] |                      bit[63:0] |   64 |  9859928131991848418 |
|        |        data[11] |                      bit[63:0] |   64 | 17102324223347341714 |
|        |        data[12] |                      bit[63:0] |   64 | 16963661067489841311 |
|        |        data[13] |                      bit[63:0] |   64 | 11026922811351440279 |
|        |        data[14] |                      bit[63:0] |   64 | 15942432259417045131 |
|        |        data[15] |                      bit[63:0] |   64 | 16237519939706115201 |
|        |        data[16] |                      bit[63:0] |   64 |  5446272419297029766 |
|        |        data[17] |                      bit[63:0] |   64 |  3979493840140120186 |
|        |        data[18] |                      bit[63:0] |   64 | 17024504007196112465 |
|        |        data[19] |                      bit[63:0] |   64 | 17625430375977710512 |
|        |        data[20] |                      bit[63:0] |   64 | 11626741709993842977 |
|        |        data[21] |                      bit[63:0] |   64 | 11048889889062400322 |
|        |        data[22] |                      bit[63:0] |   64 |  2406030918097223638 |
|        |        data[23] |                      bit[63:0] |   64 | 15994654944274646003 |
|        |        data[24] |                      bit[63:0] |   64 | 15039353849796546880 |
|        |        data[25] |                      bit[63:0] |   64 |  7873297812605727163 |
|        |        data[26] |                      bit[63:0] |   64 |  1385305595618064121 |
|        |        data[27] |                      bit[63:0] |   64 |  7036638003243820944 |
|        |        data[28] |                      bit[63:0] |   64 |  6352414477735295781 |
|        |        data[29] |                      bit[63:0] |   64 |  9055262252881344954 |
|        |        data[30] |                      bit[63:0] |   64 | 15674929897233079494 |
|        |        data[31] |                      bit[63:0] |   64 |  8480411663674337975 |
|        |        data[32] |                      bit[63:0] |   64 |  8895418805124471565 |
|        |        data[33] |                      bit[63:0] |   64 | 11452504435733548473 |
|        |        data[34] |                      bit[63:0] |   64 |   565619490268833893 |
|        |        data[35] |                      bit[63:0] |   64 | 14490801122005494120 |
|        |        data[36] |                      bit[63:0] |   64 | 17846784280391419028 |
|        |        data[37] |                      bit[63:0] |   64 | 14688936171620888064 |
|        |        data[38] |                      bit[63:0] |   64 | 15144809422469161558 |
|        |        data[39] |                      bit[63:0] |   64 |  9162358420588984060 |
|        |        data[40] |                      bit[63:0] |   64 |  3494619027696177692 |
|        |        data[41] |                      bit[63:0] |   64 |  2576318213458808049 |
|        |        data[42] |                      bit[63:0] |   64 | 15585938254361151649 |
|        |        data[43] |                      bit[63:0] |   64 |   111714200524889179 |
|        |        data[44] |                      bit[63:0] |   64 | 15571550005414577970 |
|        |        data[45] |                      bit[63:0] |   64 |  6379876231568973281 |
|        |        data[46] |                      bit[63:0] |   64 |  6272237545176378040 |
|        |        data[47] |                      bit[63:0] |   64 |  7367976093146948436 |
|        |        data[48] |                      bit[63:0] |   64 | 15659524568225779256 |
|        |        data[49] |                      bit[63:0] |   64 |  8003409570571075595 |
|        |        data[50] |                      bit[63:0] |   64 | 15129229152330385980 |
|        |        data[51] |                      bit[63:0] |   64 |  5236028783985075870 |
|        |        data[52] |                      bit[63:0] |   64 | 15043496942485698183 |
|        |        data[53] |                      bit[63:0] |   64 |  2542708231193666707 |
|        |        data[54] |                      bit[63:0] |   64 | 10385999433294761449 |
|        |        data[55] |                      bit[63:0] |   64 |  3938895490554552530 |
|        |        data[56] |                      bit[63:0] |   64 |  3832006856117612729 |
|        |        data[57] |                      bit[63:0] |   64 |  5966013409752572088 |
|        |        data[58] |                      bit[63:0] |   64 |  2734434907645339935 |
|        |        data[59] |                      bit[63:0] |   64 | 10222998926485534465 |
|     6. |        wstrb[0] |                       bit[7:0] |    8 |                  240 |
|        |        wstrb[1] |                       bit[7:0] |    8 |                   15 |
|        |        wstrb[2] |                       bit[7:0] |    8 |                  240 |
|        |        wstrb[3] |                       bit[7:0] |    8 |                   15 |
|        |        wstrb[4] |                       bit[7:0] |    8 |                  240 |
|        |        wstrb[5] |                       bit[7:0] |    8 |                   15 |
|        |        wstrb[6] |                       bit[7:0] |    8 |                  240 |
|        |        wstrb[7] |                       bit[7:0] |    8 |                   15 |
|        |        wstrb[8] |                       bit[7:0] |    8 |                  240 |
|        |        wstrb[9] |                       bit[7:0] |    8 |                   15 |
|        |       wstrb[10] |                       bit[7:0] |    8 |                  240 |
|        |       wstrb[11] |                       bit[7:0] |    8 |                   15 |
|        |       wstrb[12] |                       bit[7:0] |    8 |                  240 |
|        |       wstrb[13] |                       bit[7:0] |    8 |                   15 |
|        |       wstrb[14] |                       bit[7:0] |    8 |                  240 |
|        |       wstrb[15] |                       bit[7:0] |    8 |                   15 |
|        |       wstrb[16] |                       bit[7:0] |    8 |                  240 |
|        |       wstrb[17] |                       bit[7:0] |    8 |                   15 |
|        |       wstrb[18] |                       bit[7:0] |    8 |                  240 |
|        |       wstrb[19] |                       bit[7:0] |    8 |                   15 |
|        |       wstrb[20] |                       bit[7:0] |    8 |                  240 |
|        |       wstrb[21] |                       bit[7:0] |    8 |                   15 |
|        |       wstrb[22] |                       bit[7:0] |    8 |                  240 |
|        |       wstrb[23] |                       bit[7:0] |    8 |                   15 |
|        |       wstrb[24] |                       bit[7:0] |    8 |                  240 |
|        |       wstrb[25] |                       bit[7:0] |    8 |                   15 |
|        |       wstrb[26] |                       bit[7:0] |    8 |                  240 |
|        |       wstrb[27] |                       bit[7:0] |    8 |                   15 |
|        |       wstrb[28] |                       bit[7:0] |    8 |                  240 |
|        |       wstrb[29] |                       bit[7:0] |    8 |                   15 |
|        |       wstrb[30] |                       bit[7:0] |    8 |                  240 |
|        |       wstrb[31] |                       bit[7:0] |    8 |                   15 |
|        |       wstrb[32] |                       bit[7:0] |    8 |                  240 |
|        |       wstrb[33] |                       bit[7:0] |    8 |                   15 |
|        |       wstrb[34] |                       bit[7:0] |    8 |                  240 |
|        |       wstrb[35] |                       bit[7:0] |    8 |                   15 |
|        |       wstrb[36] |                       bit[7:0] |    8 |                  240 |
|        |       wstrb[37] |                       bit[7:0] |    8 |                   15 |
|        |       wstrb[38] |                       bit[7:0] |    8 |                  240 |
|        |       wstrb[39] |                       bit[7:0] |    8 |                   15 |
|        |       wstrb[40] |                       bit[7:0] |    8 |                  240 |
|        |       wstrb[41] |                       bit[7:0] |    8 |                   15 |
|        |       wstrb[42] |                       bit[7:0] |    8 |                  240 |
|        |       wstrb[43] |                       bit[7:0] |    8 |                   15 |
|        |       wstrb[44] |                       bit[7:0] |    8 |                  240 |
|        |       wstrb[45] |                       bit[7:0] |    8 |                   15 |
|        |       wstrb[46] |                       bit[7:0] |    8 |                  240 |
|        |       wstrb[47] |                       bit[7:0] |    8 |                   15 |
|        |       wstrb[48] |                       bit[7:0] |    8 |                  240 |
|        |       wstrb[49] |                       bit[7:0] |    8 |                   15 |
|        |       wstrb[50] |                       bit[7:0] |    8 |                  240 |
|        |       wstrb[51] |                       bit[7:0] |    8 |                   15 |
|        |       wstrb[52] |                       bit[7:0] |    8 |                  240 |
|        |       wstrb[53] |                       bit[7:0] |    8 |                   15 |
|        |       wstrb[54] |                       bit[7:0] |    8 |                  240 |
|        |       wstrb[55] |                       bit[7:0] |    8 |                   15 |
|        |       wstrb[56] |                       bit[7:0] |    8 |                  240 |
|        |       wstrb[57] |                       bit[7:0] |    8 |                   15 |
|        |       wstrb[58] |                       bit[7:0] |    8 |                  240 |
|        |       wstrb[59] |                       bit[7:0] |    8 |                   15 |
|     7. |           bresp |         enum $unit::response_e |    2 |                 OKAY |
+=========================================================================================+
no_of_trans_monitored = 1
+=========================================================================================+
| Transaction Type :       READ  [GENERATOR] @  645                                       |
+=========================================================================================+
| Sr No  |            Name |                           Type | Size |                Value |
+=========================================================================================+
|     1. |            addr |                      bit[31:0] |   32 |           3752521740 |
|     2. |           burst |       enum $unit::burst_type_e |    2 |                 INCR |
|     3. |             len |                       bit[7:0] |    8 |                   59 |
|     4. |            size |                       bit[2:0] |    3 |                    2 |
|     5. |         data[0] |                      bit[63:0] |   64 |                    0 |
+=========================================================================================+
|     6. |        rresp[0] |         enum $unit::response_e |    2 |                 OKAY |
+=========================================================================================+
@665 read handshake occured -> 3752521740
[Write Address Channel] 		@665 ARVALID & ARREADY Handshaked 
----------------------------------------------------------:---
@665 read handshake occured -> 3752521740
time                 665
time                 675
time                 685
time                 695
time                 705
time                 715
time                 725
time                 735
time                 745
time                 755
time                 765
time                 775
time                 785
time                 795
time                 805
time                 815
time                 825
time                 835
time                 845
time                 855
time                 865
time                 875
time                 885
time                 895
time                 905
time                 915
time                 925
time                 935
time                 945
time                 955
time                 965
time                 975
time                 985
time                 995
time                1005
time                1015
time                1025
time                1035
time                1045
time                1055
time                1065
time                1075
time                1085
time                1095
time                1105
time                1115
time                1125
time                1135
time                1145
time                1155
time                1165
time                1175
time                1185
time                1195
time                1205
time                1215
time                1225
time                1235
time                1245
time                1255
time                1265
time                1265
reference_model address -=-==-=-=-=-=-=-=-=-=-=-=-=-=-=--=-=-=-=-= > = 3752521740
4kb_boundary if confdition dnskjfhbvhjAVDOKFDLISAGIDGSAISKFKUDSFKADS
reference_model address -=-==-=-=-=-=-=-=-=-=-=-=-=-=-=--=-=-=-=-= > = 3752521740
4kb_boundary if confdition dnskjfhbvhjAVDOKFDLISAGIDGSAISKFKUDSFKADS
reference_model address -=-==-=-=-=-=-=-=-=-=-=-=-=-=-=--=-=-=-=-= > = 3752521740
4kb_boundary if confdition dnskjfhbvhjAVDOKFDLISAGIDGSAISKFKUDSFKADS
reference_model address -=-==-=-=-=-=-=-=-=-=-=-=-=-=-=--=-=-=-=-= > = 3752521740
4kb_boundary if confdition dnskjfhbvhjAVDOKFDLISAGIDGSAISKFKUDSFKADS
reference_model address -=-==-=-=-=-=-=-=-=-=-=-=-=-=-=--=-=-=-=-= > = 3752521740
4kb_boundary if confdition dnskjfhbvhjAVDOKFDLISAGIDGSAISKFKUDSFKADS
reference_model address -=-==-=-=-=-=-=-=-=-=-=-=-=-=-=--=-=-=-=-= > = 3752521740
4kb_boundary if confdition dnskjfhbvhjAVDOKFDLISAGIDGSAISKFKUDSFKADS
reference_model address -=-==-=-=-=-=-=-=-=-=-=-=-=-=-=--=-=-=-=-= > = 3752521740
4kb_boundary if confdition dnskjfhbvhjAVDOKFDLISAGIDGSAISKFKUDSFKADS
reference_model address -=-==-=-=-=-=-=-=-=-=-=-=-=-=-=--=-=-=-=-= > = 3752521740
4kb_boundary if confdition dnskjfhbvhjAVDOKFDLISAGIDGSAISKFKUDSFKADS
reference_model address -=-==-=-=-=-=-=-=-=-=-=-=-=-=-=--=-=-=-=-= > = 3752521740
4kb_boundary if confdition dnskjfhbvhjAVDOKFDLISAGIDGSAISKFKUDSFKADS
reference_model address -=-==-=-=-=-=-=-=-=-=-=-=-=-=-=--=-=-=-=-= > = 3752521740
4kb_boundary if confdition dnskjfhbvhjAVDOKFDLISAGIDGSAISKFKUDSFKADS
reference_model address -=-==-=-=-=-=-=-=-=-=-=-=-=-=-=--=-=-=-=-= > = 3752521740
4kb_boundary if confdition dnskjfhbvhjAVDOKFDLISAGIDGSAISKFKUDSFKADS
reference_model address -=-==-=-=-=-=-=-=-=-=-=-=-=-=-=--=-=-=-=-= > = 3752521740
4kb_boundary if confdition dnskjfhbvhjAVDOKFDLISAGIDGSAISKFKUDSFKADS
reference_model address -=-==-=-=-=-=-=-=-=-=-=-=-=-=-=--=-=-=-=-= > = 3752521740
4kb_boundary if confdition dnskjfhbvhjAVDOKFDLISAGIDGSAISKFKUDSFKADS
reference_model address -=-==-=-=-=-=-=-=-=-=-=-=-=-=-=--=-=-=-=-= > = 3752521740
4kb_boundary if confdition dnskjfhbvhjAVDOKFDLISAGIDGSAISKFKUDSFKADS
reference_model address -=-==-=-=-=-=-=-=-=-=-=-=-=-=-=--=-=-=-=-= > = 3752521740
4kb_boundary if confdition dnskjfhbvhjAVDOKFDLISAGIDGSAISKFKUDSFKADS
reference_model address -=-==-=-=-=-=-=-=-=-=-=-=-=-=-=--=-=-=-=-= > = 3752521740
4kb_boundary if confdition dnskjfhbvhjAVDOKFDLISAGIDGSAISKFKUDSFKADS
reference_model address -=-==-=-=-=-=-=-=-=-=-=-=-=-=-=--=-=-=-=-= > = 3752521740
4kb_boundary if confdition dnskjfhbvhjAVDOKFDLISAGIDGSAISKFKUDSFKADS
reference_model address -=-==-=-=-=-=-=-=-=-=-=-=-=-=-=--=-=-=-=-= > = 3752521740
4kb_boundary if confdition dnskjfhbvhjAVDOKFDLISAGIDGSAISKFKUDSFKADS
reference_model address -=-==-=-=-=-=-=-=-=-=-=-=-=-=-=--=-=-=-=-= > = 3752521740
4kb_boundary if confdition dnskjfhbvhjAVDOKFDLISAGIDGSAISKFKUDSFKADS
reference_model address -=-==-=-=-=-=-=-=-=-=-=-=-=-=-=--=-=-=-=-= > = 3752521740
4kb_boundary if confdition dnskjfhbvhjAVDOKFDLISAGIDGSAISKFKUDSFKADS
reference_model address -=-==-=-=-=-=-=-=-=-=-=-=-=-=-=--=-=-=-=-= > = 3752521740
4kb_boundary if confdition dnskjfhbvhjAVDOKFDLISAGIDGSAISKFKUDSFKADS
reference_model address -=-==-=-=-=-=-=-=-=-=-=-=-=-=-=--=-=-=-=-= > = 3752521740
4kb_boundary if confdition dnskjfhbvhjAVDOKFDLISAGIDGSAISKFKUDSFKADS
reference_model address -=-==-=-=-=-=-=-=-=-=-=-=-=-=-=--=-=-=-=-= > = 3752521740
4kb_boundary if confdition dnskjfhbvhjAVDOKFDLISAGIDGSAISKFKUDSFKADS
reference_model address -=-==-=-=-=-=-=-=-=-=-=-=-=-=-=--=-=-=-=-= > = 3752521740
4kb_boundary if confdition dnskjfhbvhjAVDOKFDLISAGIDGSAISKFKUDSFKADS
reference_model address -=-==-=-=-=-=-=-=-=-=-=-=-=-=-=--=-=-=-=-= > = 3752521740
4kb_boundary if confdition dnskjfhbvhjAVDOKFDLISAGIDGSAISKFKUDSFKADS
reference_model address -=-==-=-=-=-=-=-=-=-=-=-=-=-=-=--=-=-=-=-= > = 3752521740
4kb_boundary if confdition dnskjfhbvhjAVDOKFDLISAGIDGSAISKFKUDSFKADS
reference_model address -=-==-=-=-=-=-=-=-=-=-=-=-=-=-=--=-=-=-=-= > = 3752521740
4kb_boundary if confdition dnskjfhbvhjAVDOKFDLISAGIDGSAISKFKUDSFKADS
reference_model address -=-==-=-=-=-=-=-=-=-=-=-=-=-=-=--=-=-=-=-= > = 3752521740
4kb_boundary if confdition dnskjfhbvhjAVDOKFDLISAGIDGSAISKFKUDSFKADS
reference_model address -=-==-=-=-=-=-=-=-=-=-=-=-=-=-=--=-=-=-=-= > = 3752521740
4kb_boundary if confdition dnskjfhbvhjAVDOKFDLISAGIDGSAISKFKUDSFKADS
reference_model address -=-==-=-=-=-=-=-=-=-=-=-=-=-=-=--=-=-=-=-= > = 3752521740
4kb_boundary if confdition dnskjfhbvhjAVDOKFDLISAGIDGSAISKFKUDSFKADS
reference_model address -=-==-=-=-=-=-=-=-=-=-=-=-=-=-=--=-=-=-=-= > = 3752521740
4kb_boundary if confdition dnskjfhbvhjAVDOKFDLISAGIDGSAISKFKUDSFKADS
reference_model address -=-==-=-=-=-=-=-=-=-=-=-=-=-=-=--=-=-=-=-= > = 3752521740
4kb_boundary if confdition dnskjfhbvhjAVDOKFDLISAGIDGSAISKFKUDSFKADS
reference_model address -=-==-=-=-=-=-=-=-=-=-=-=-=-=-=--=-=-=-=-= > = 3752521740
4kb_boundary if confdition dnskjfhbvhjAVDOKFDLISAGIDGSAISKFKUDSFKADS
reference_model address -=-==-=-=-=-=-=-=-=-=-=-=-=-=-=--=-=-=-=-= > = 3752521740
4kb_boundary if confdition dnskjfhbvhjAVDOKFDLISAGIDGSAISKFKUDSFKADS
reference_model address -=-==-=-=-=-=-=-=-=-=-=-=-=-=-=--=-=-=-=-= > = 3752521740
4kb_boundary if confdition dnskjfhbvhjAVDOKFDLISAGIDGSAISKFKUDSFKADS
reference_model address -=-==-=-=-=-=-=-=-=-=-=-=-=-=-=--=-=-=-=-= > = 3752521740
4kb_boundary if confdition dnskjfhbvhjAVDOKFDLISAGIDGSAISKFKUDSFKADS
reference_model address -=-==-=-=-=-=-=-=-=-=-=-=-=-=-=--=-=-=-=-= > = 3752521740
4kb_boundary if confdition dnskjfhbvhjAVDOKFDLISAGIDGSAISKFKUDSFKADS
reference_model address -=-==-=-=-=-=-=-=-=-=-=-=-=-=-=--=-=-=-=-= > = 3752521740
4kb_boundary if confdition dnskjfhbvhjAVDOKFDLISAGIDGSAISKFKUDSFKADS
reference_model address -=-==-=-=-=-=-=-=-=-=-=-=-=-=-=--=-=-=-=-= > = 3752521740
4kb_boundary if confdition dnskjfhbvhjAVDOKFDLISAGIDGSAISKFKUDSFKADS
reference_model address -=-==-=-=-=-=-=-=-=-=-=-=-=-=-=--=-=-=-=-= > = 3752521740
4kb_boundary if confdition dnskjfhbvhjAVDOKFDLISAGIDGSAISKFKUDSFKADS
reference_model address -=-==-=-=-=-=-=-=-=-=-=-=-=-=-=--=-=-=-=-= > = 3752521740
4kb_boundary if confdition dnskjfhbvhjAVDOKFDLISAGIDGSAISKFKUDSFKADS
reference_model address -=-==-=-=-=-=-=-=-=-=-=-=-=-=-=--=-=-=-=-= > = 3752521740
4kb_boundary if confdition dnskjfhbvhjAVDOKFDLISAGIDGSAISKFKUDSFKADS
reference_model address -=-==-=-=-=-=-=-=-=-=-=-=-=-=-=--=-=-=-=-= > = 3752521740
4kb_boundary if confdition dnskjfhbvhjAVDOKFDLISAGIDGSAISKFKUDSFKADS
reference_model address -=-==-=-=-=-=-=-=-=-=-=-=-=-=-=--=-=-=-=-= > = 3752521740
4kb_boundary if confdition dnskjfhbvhjAVDOKFDLISAGIDGSAISKFKUDSFKADS
reference_model address -=-==-=-=-=-=-=-=-=-=-=-=-=-=-=--=-=-=-=-= > = 3752521740
4kb_boundary if confdition dnskjfhbvhjAVDOKFDLISAGIDGSAISKFKUDSFKADS
reference_model address -=-==-=-=-=-=-=-=-=-=-=-=-=-=-=--=-=-=-=-= > = 3752521740
4kb_boundary if confdition dnskjfhbvhjAVDOKFDLISAGIDGSAISKFKUDSFKADS
reference_model address -=-==-=-=-=-=-=-=-=-=-=-=-=-=-=--=-=-=-=-= > = 3752521740
4kb_boundary if confdition dnskjfhbvhjAVDOKFDLISAGIDGSAISKFKUDSFKADS
reference_model address -=-==-=-=-=-=-=-=-=-=-=-=-=-=-=--=-=-=-=-= > = 3752521740
4kb_boundary if confdition dnskjfhbvhjAVDOKFDLISAGIDGSAISKFKUDSFKADS
reference_model address -=-==-=-=-=-=-=-=-=-=-=-=-=-=-=--=-=-=-=-= > = 3752521740
4kb_boundary if confdition dnskjfhbvhjAVDOKFDLISAGIDGSAISKFKUDSFKADS
reference_model address -=-==-=-=-=-=-=-=-=-=-=-=-=-=-=--=-=-=-=-= > = 3752521740
4kb_boundary if confdition dnskjfhbvhjAVDOKFDLISAGIDGSAISKFKUDSFKADS
reference_model address -=-==-=-=-=-=-=-=-=-=-=-=-=-=-=--=-=-=-=-= > = 3752521740
4kb_boundary if confdition dnskjfhbvhjAVDOKFDLISAGIDGSAISKFKUDSFKADS
reference_model address -=-==-=-=-=-=-=-=-=-=-=-=-=-=-=--=-=-=-=-= > = 3752521740
4kb_boundary if confdition dnskjfhbvhjAVDOKFDLISAGIDGSAISKFKUDSFKADS
reference_model address -=-==-=-=-=-=-=-=-=-=-=-=-=-=-=--=-=-=-=-= > = 3752521740
4kb_boundary if confdition dnskjfhbvhjAVDOKFDLISAGIDGSAISKFKUDSFKADS
reference_model address -=-==-=-=-=-=-=-=-=-=-=-=-=-=-=--=-=-=-=-= > = 3752521740
4kb_boundary if confdition dnskjfhbvhjAVDOKFDLISAGIDGSAISKFKUDSFKADS
reference_model address -=-==-=-=-=-=-=-=-=-=-=-=-=-=-=--=-=-=-=-= > = 3752521740
4kb_boundary if confdition dnskjfhbvhjAVDOKFDLISAGIDGSAISKFKUDSFKADS
reference_model address -=-==-=-=-=-=-=-=-=-=-=-=-=-=-=--=-=-=-=-= > = 3752521740
4kb_boundary if confdition dnskjfhbvhjAVDOKFDLISAGIDGSAISKFKUDSFKADS
reference_model address -=-==-=-=-=-=-=-=-=-=-=-=-=-=-=--=-=-=-=-= > = 3752521740
4kb_boundary if confdition dnskjfhbvhjAVDOKFDLISAGIDGSAISKFKUDSFKADS
reference_model address -=-==-=-=-=-=-=-=-=-=-=-=-=-=-=--=-=-=-=-= > = 3752521740
4kb_boundary if confdition dnskjfhbvhjAVDOKFDLISAGIDGSAISKFKUDSFKADS
reference_model address -=-==-=-=-=-=-=-=-=-=-=-=-=-=-=--=-=-=-=-= > = 3752521740
4kb_boundary if confdition dnskjfhbvhjAVDOKFDLISAGIDGSAISKFKUDSFKADS
reference_model address -=-==-=-=-=-=-=-=-=-=-=-=-=-=-=--=-=-=-=-= > = 3752521740
4kb_boundary if confdition dnskjfhbvhjAVDOKFDLISAGIDGSAISKFKUDSFKADS
got from reference
+=========================================================================================+
| Transaction Type :       READ     [GOLDEN] @ 1315                                       |
+=========================================================================================+
| Sr No  |            Name |                           Type | Size |                Value |
+=========================================================================================+
|     1. |            addr |                      bit[31:0] |   32 |           3752521740 |
|     2. |           burst |       enum $unit::burst_type_e |    2 |                 INCR |
|     3. |             len |                       bit[7:0] |    8 |                   59 |
|     4. |            size |                       bit[2:0] |    3 |                    2 |
<<<<<<< HEAD
|     5. |         data[0] |                      bit[63:0] |   64 |  5663618187476860928 |
|        |         data[1] |                      bit[63:0] |   64 |           3717638527 |
|        |         data[2] |                      bit[63:0] |   64 | 16187322097528209408 |
|        |         data[3] |                      bit[63:0] |   64 |             99459989 |
|        |         data[4] |                      bit[63:0] |   64 |  7021212995615195136 |
|        |         data[5] |                      bit[63:0] |   64 |           2958979251 |
|        |         data[6] |                      bit[63:0] |   64 |  9928443617741897728 |
|        |         data[7] |                      bit[63:0] |   64 |           2505406407 |
|        |         data[8] |                      bit[63:0] |   64 | 17420159977007349760 |
|        |         data[9] |                      bit[63:0] |   64 |           1121206217 |
|        |        data[10] |                      bit[63:0] |   64 |  9859928130477621248 |
|        |        data[11] |                      bit[63:0] |   64 |           3861723538 |
|        |        data[12] |                      bit[63:0] |   64 | 16963661067190272000 |
|        |        data[13] |                      bit[63:0] |   64 |           2957056919 |
|        |        data[14] |                      bit[63:0] |   64 | 15942432257835270144 |
|        |        data[15] |                      bit[63:0] |   64 |           3884012673 |
|        |        data[16] |                      bit[63:0] |   64 |  5446272415434801152 |
|        |        data[17] |                      bit[63:0] |   64 |            929575034 |
|        |        data[18] |                      bit[63:0] |   64 | 17024504003402137600 |
|        |        data[19] |                      bit[63:0] |   64 |            495449008 |
|        |        data[20] |                      bit[63:0] |   64 | 11626741705977364480 |
|        |        data[21] |                      bit[63:0] |   64 |           2281189698 |
|        |        data[22] |                      bit[63:0] |   64 |  2406030916758536192 |
|        |        data[23] |                      bit[63:0] |   64 |           2993652723 |
|        |        data[24] |                      bit[63:0] |   64 | 15039353845559853056 |
|        |        data[25] |                      bit[63:0] |   64 |           1664709051 |
|        |        data[26] |                      bit[63:0] |   64 |  1385305593534742528 |
|        |        data[27] |                      bit[63:0] |   64 |           1952229264 |
|        |        data[28] |                      bit[63:0] |   64 |  6352414475127095296 |
|        |        data[29] |                      bit[63:0] |   64 |           3405707706 |
|        |        data[30] |                      bit[63:0] |   64 | 15674929896365228032 |
|        |        data[31] |                      bit[63:0] |   64 |            442722999 |
|        |        data[32] |                      bit[63:0] |   64 |  8895418800967516160 |
|        |        data[33] |                      bit[63:0] |   64 |            947637689 |
|        |        data[34] |                      bit[63:0] |   64 |   565619486049173504 |
|        |        data[35] |                      bit[63:0] |   64 |           1274554728 |
|        |        data[36] |                      bit[63:0] |   64 | 17846784279724425216 |
|        |        data[37] |                      bit[63:0] |   64 |           1842966016 |
|        |        data[38] |                      bit[63:0] |   64 | 15144809418824089600 |
|        |        data[39] |                      bit[63:0] |   64 |           1946416892 |
|        |        data[40] |                      bit[63:0] |   64 |  3494619025361600512 |
|        |        data[41] |                      bit[63:0] |   64 |           3851734257 |
|        |        data[42] |                      bit[63:0] |   64 | 15585938251301519360 |
|        |        data[43] |                      bit[63:0] |   64 |            916921435 |
|        |        data[44] |                      bit[63:0] |   64 | 15571550003485736960 |
|        |        data[45] |                      bit[63:0] |   64 |           1839226337 |
|        |        data[46] |                      bit[63:0] |   64 |  6272237541768822784 |
|        |        data[47] |                      bit[63:0] |   64 |            832054100 |
|        |        data[48] |                      bit[63:0] |   64 | 15659524565934014464 |
|        |        data[49] |                      bit[63:0] |   64 |           3185164299 |
|        |        data[50] |                      bit[63:0] |   64 | 15129229150079942656 |
|        |        data[51] |                      bit[63:0] |   64 |           4146505374 |
|        |        data[52] |                      bit[63:0] |   64 | 15043496938517299200 |
|        |        data[53] |                      bit[63:0] |   64 |            398632083 |
|        |        data[54] |                      bit[63:0] |   64 | 10385999433111175168 |
|        |        data[55] |                      bit[63:0] |   64 |           1508139218 |
|        |        data[56] |                      bit[63:0] |   64 |  3832006852699226112 |
|        |        data[57] |                      bit[63:0] |   64 |           1032118456 |
|        |        data[58] |                      bit[63:0] |   64 |  2734434905168543744 |
|        |        data[59] |                      bit[63:0] |   64 |            543078145 |
=======
|     5. |         data[0] |                      bit[63:0] |   64 |                    0 |
|        |         data[1] |                      bit[63:0] |   64 |                    0 |
|        |         data[2] |                      bit[63:0] |   64 |                    0 |
|        |         data[3] |                      bit[63:0] |   64 |                    0 |
|        |         data[4] |                      bit[63:0] |   64 |                    0 |
|        |         data[5] |                      bit[63:0] |   64 |                    0 |
|        |         data[6] |                      bit[63:0] |   64 |                    0 |
|        |         data[7] |                      bit[63:0] |   64 |                    0 |
|        |         data[8] |                      bit[63:0] |   64 |                    0 |
|        |         data[9] |                      bit[63:0] |   64 |                    0 |
|        |        data[10] |                      bit[63:0] |   64 |                    0 |
|        |        data[11] |                      bit[63:0] |   64 |                    0 |
|        |        data[12] |                      bit[63:0] |   64 |                    0 |
|        |        data[13] |                      bit[63:0] |   64 |                    0 |
>>>>>>> 82bef44bc9897a347b797b7b476cee882498cc31
>>>>>>> c11166c6dcc600c4b6a7217a8be3bda970fcf681
|     6. |        rresp[0] |         enum $unit::response_e |    2 |                 OKAY |
|        |        rresp[1] |         enum $unit::response_e |    2 |                 OKAY |
|        |        rresp[2] |         enum $unit::response_e |    2 |                 OKAY |
|        |        rresp[3] |         enum $unit::response_e |    2 |                 OKAY |
|        |        rresp[4] |         enum $unit::response_e |    2 |                 OKAY |
|        |        rresp[5] |         enum $unit::response_e |    2 |                 OKAY |
|        |        rresp[6] |         enum $unit::response_e |    2 |                 OKAY |
|        |        rresp[7] |         enum $unit::response_e |    2 |                 OKAY |
|        |        rresp[8] |         enum $unit::response_e |    2 |                 OKAY |
|        |        rresp[9] |         enum $unit::response_e |    2 |                 OKAY |
|        |       rresp[10] |         enum $unit::response_e |    2 |                 OKAY |
|        |       rresp[11] |         enum $unit::response_e |    2 |                 OKAY |
|        |       rresp[12] |         enum $unit::response_e |    2 |                 OKAY |
|        |       rresp[13] |         enum $unit::response_e |    2 |                 OKAY |
<<<<<<< HEAD
=======
<<<<<<< HEAD
>>>>>>> c11166c6dcc600c4b6a7217a8be3bda970fcf681
|        |       rresp[14] |         enum $unit::response_e |    2 |                 OKAY |
|        |       rresp[15] |         enum $unit::response_e |    2 |                 OKAY |
|        |       rresp[16] |         enum $unit::response_e |    2 |                 OKAY |
|        |       rresp[17] |         enum $unit::response_e |    2 |                 OKAY |
|        |       rresp[18] |         enum $unit::response_e |    2 |                 OKAY |
|        |       rresp[19] |         enum $unit::response_e |    2 |                 OKAY |
|        |       rresp[20] |         enum $unit::response_e |    2 |                 OKAY |
|        |       rresp[21] |         enum $unit::response_e |    2 |                 OKAY |
|        |       rresp[22] |         enum $unit::response_e |    2 |                 OKAY |
|        |       rresp[23] |         enum $unit::response_e |    2 |                 OKAY |
|        |       rresp[24] |         enum $unit::response_e |    2 |                 OKAY |
|        |       rresp[25] |         enum $unit::response_e |    2 |                 OKAY |
|        |       rresp[26] |         enum $unit::response_e |    2 |                 OKAY |
|        |       rresp[27] |         enum $unit::response_e |    2 |                 OKAY |
|        |       rresp[28] |         enum $unit::response_e |    2 |                 OKAY |
|        |       rresp[29] |         enum $unit::response_e |    2 |                 OKAY |
|        |       rresp[30] |         enum $unit::response_e |    2 |                 OKAY |
|        |       rresp[31] |         enum $unit::response_e |    2 |                 OKAY |
|        |       rresp[32] |         enum $unit::response_e |    2 |                 OKAY |
|        |       rresp[33] |         enum $unit::response_e |    2 |                 OKAY |
|        |       rresp[34] |         enum $unit::response_e |    2 |                 OKAY |
|        |       rresp[35] |         enum $unit::response_e |    2 |                 OKAY |
|        |       rresp[36] |         enum $unit::response_e |    2 |                 OKAY |
|        |       rresp[37] |         enum $unit::response_e |    2 |                 OKAY |
|        |       rresp[38] |         enum $unit::response_e |    2 |                 OKAY |
|        |       rresp[39] |         enum $unit::response_e |    2 |                 OKAY |
|        |       rresp[40] |         enum $unit::response_e |    2 |                 OKAY |
|        |       rresp[41] |         enum $unit::response_e |    2 |                 OKAY |
|        |       rresp[42] |         enum $unit::response_e |    2 |                 OKAY |
|        |       rresp[43] |         enum $unit::response_e |    2 |                 OKAY |
|        |       rresp[44] |         enum $unit::response_e |    2 |                 OKAY |
|        |       rresp[45] |         enum $unit::response_e |    2 |                 OKAY |
|        |       rresp[46] |         enum $unit::response_e |    2 |                 OKAY |
|        |       rresp[47] |         enum $unit::response_e |    2 |                 OKAY |
|        |       rresp[48] |         enum $unit::response_e |    2 |                 OKAY |
|        |       rresp[49] |         enum $unit::response_e |    2 |                 OKAY |
|        |       rresp[50] |         enum $unit::response_e |    2 |                 OKAY |
|        |       rresp[51] |         enum $unit::response_e |    2 |                 OKAY |
|        |       rresp[52] |         enum $unit::response_e |    2 |                 OKAY |
|        |       rresp[53] |         enum $unit::response_e |    2 |                 OKAY |
|        |       rresp[54] |         enum $unit::response_e |    2 |                 OKAY |
|        |       rresp[55] |         enum $unit::response_e |    2 |                 OKAY |
|        |       rresp[56] |         enum $unit::response_e |    2 |                 OKAY |
|        |       rresp[57] |         enum $unit::response_e |    2 |                 OKAY |
|        |       rresp[58] |         enum $unit::response_e |    2 |                 OKAY |
|        |       rresp[59] |         enum $unit::response_e |    2 |                 OKAY |
<<<<<<< HEAD
=======
|        |       rresp[60] |         enum $unit::response_e |    2 |                 OKAY |
+=========================================================================================+
got from monitor
+=========================================================================================+
| Transaction Type :       READ       [TRAN] @ 1335                                       |
+=========================================================================================+
| Sr No  |            Name |                           Type | Size |                Value |
+=========================================================================================+
|     1. |            addr |                      bit[31:0] |   32 |           1707599077 |
|     2. |           burst |       enum $unit::burst_type_e |    2 |                 INCR |
|     3. |             len |                       bit[7:0] |    8 |                   60 |
|     4. |            size |                       bit[2:0] |    3 |                    1 |
|     5. |         data[0] |                      bit[63:0] |   64 |       81363860455424 |
|        |         data[1] |                      bit[63:0] |   64 | 14946602738312544256 |
|        |         data[2] |                      bit[63:0] |   64 |                26834 |
|        |         data[3] |                      bit[63:0] |   64 |           3031302144 |
|        |         data[4] |                      bit[63:0] |   64 |      149636660592640 |
|        |         data[5] |                      bit[63:0] |   64 | 13731756738829352960 |
|        |         data[6] |                      bit[63:0] |   64 |                48801 |
|        |         data[7] |                      bit[63:0] |   64 |           2541617152 |
|        |         data[8] |                      bit[63:0] |   64 |      272717538394112 |
|        |         data[9] |                      bit[63:0] |   64 |  8592586614046195712 |
|        |        data[10] |                      bit[63:0] |   64 |                33342 |
|        |        data[11] |                      bit[63:0] |   64 |           3504930816 |
|        |        data[12] |                      bit[63:0] |   64 |      192045167673344 |
|        |        data[13] |                      bit[63:0] |   64 |  4228880050100895744 |
|        |        data[14] |                      bit[63:0] |   64 |                64836 |
|        |        data[15] |                      bit[63:0] |   64 |           1367867392 |
|        |        data[16] |                      bit[63:0] |   64 |      189485367164928 |
|        |        data[17] |                      bit[63:0] |   64 |  8175440698561003520 |
|        |        data[18] |                      bit[63:0] |   64 |                55238 |
|        |        data[19] |                      bit[63:0] |   64 |           2419130368 |
|        |        data[20] |                      bit[63:0] |   64 |      273705380872192 |
|        |        data[21] |                      bit[63:0] |   64 | 16700754793173352448 |
|        |        data[22] |                      bit[63:0] |   64 |                46601 |
|        |        data[23] |                      bit[63:0] |   64 |           1839136768 |
|        |        data[24] |                      bit[63:0] |   64 |      128445291954176 |
|        |        data[25] |                      bit[63:0] |   64 | 14528612397897220096 |
|        |        data[26] |                      bit[63:0] |   64 |                45336 |
|        |        data[27] |                      bit[63:0] |   64 |           1310326784 |
|        |        data[28] |                      bit[63:0] |   64 |       97976793956352 |
|        |        data[29] |                      bit[63:0] |   64 | 11326553062836797440 |
|        |        data[30] |                      bit[63:0] |   64 |                45210 |
|        |        data[31] |                      bit[63:0] |   64 |            394002432 |
|        |        data[32] |                      bit[63:0] |   64 |      259416024678400 |
|        |        data[33] |                      bit[63:0] |   64 |  8901083188521074688 |
|        |        data[34] |                      bit[63:0] |   64 |                27723 |
|        |        data[35] |                      bit[63:0] |   64 |           2168913920 |
|        |        data[36] |                      bit[63:0] |   64 |      225309689380864 |
|        |        data[37] |                      bit[63:0] |   64 | 14381400985077547008 |
